!Keysight Technologies,E5063A,MY54503115,A.05.08
!Date: Mon Mar 04 15:42:48 2024
!Data & Calibration Information:
!Freq	S11:NONE(--)	S21:NONE(--)	S12:NONE(--)	S22:NONE(--)
# Hz S dB R 50
100000.000	5.062260e-002	-9.367758e-001	-8.544842e+001	5.928766e+001	-2.000000e+002	0.000000e+000	-2.000000e+002	0.000000e+000
749990.000	1.505583e-003	-3.046307e+000	-9.893728e+001	1.227591e+002	-2.000000e+002	0.000000e+000	-2.000000e+002	0.000000e+000
1399980.000	3.451078e-003	-5.345428e+000	-8.587841e+001	-1.585044e+002	-2.000000e+002	0.000000e+000	-2.000000e+002	0.000000e+000
2049970.000	2.676660e-003	-7.667697e+000	-7.861601e+001	1.231024e+002	-2.000000e+002	0.000000e+000	-2.000000e+002	0.000000e+000
2699960.000	3.387633e-003	-9.994464e+000	-7.778329e+001	7.917369e+001	-2.000000e+002	0.000000e+000	-2.000000e+002	0.000000e+000
3349950.000	6.435662e-003	-1.233048e+001	-7.764748e+001	6.635854e+001	-2.000000e+002	0.000000e+000	-2.000000e+002	0.000000e+000
3999940.000	5.045592e-003	-1.466471e+001	-7.442721e+001	8.516146e+001	-2.000000e+002	0.000000e+000	-2.000000e+002	0.000000e+000
4649930.000	7.059803e-003	-1.700851e+001	-7.554283e+001	8.674528e+001	-2.000000e+002	0.000000e+000	-2.000000e+002	0.000000e+000
5299920.000	6.900694e-003	-1.933188e+001	-7.391630e+001	7.602496e+001	-2.000000e+002	0.000000e+000	-2.000000e+002	0.000000e+000
5949910.000	6.566797e-003	-2.166667e+001	-7.204507e+001	7.004765e+001	-2.000000e+002	0.000000e+000	-2.000000e+002	0.000000e+000
6599900.000	6.685991e-003	-2.400937e+001	-7.021043e+001	6.979016e+001	-2.000000e+002	0.000000e+000	-2.000000e+002	0.000000e+000
7249890.000	6.995062e-003	-2.634923e+001	-7.135556e+001	6.976778e+001	-2.000000e+002	0.000000e+000	-2.000000e+002	0.000000e+000
7899880.000	5.689005e-003	-2.869406e+001	-6.994493e+001	6.747859e+001	-2.000000e+002	0.000000e+000	-2.000000e+002	0.000000e+000
8549870.000	9.079386e-003	-3.104560e+001	-6.898024e+001	6.415621e+001	-2.000000e+002	0.000000e+000	-2.000000e+002	0.000000e+000
9199860.000	8.490308e-003	-3.339137e+001	-6.832102e+001	6.119425e+001	-2.000000e+002	0.000000e+000	-2.000000e+002	0.000000e+000
9849850.000	7.946560e-003	-3.573519e+001	-6.774714e+001	5.857398e+001	-2.000000e+002	0.000000e+000	-2.000000e+002	0.000000e+000
10499840.000	6.289390e-003	-3.807223e+001	-6.718656e+001	5.561634e+001	-2.000000e+002	0.000000e+000	-2.000000e+002	0.000000e+000
11149830.000	3.763532e-003	-4.041610e+001	-6.673535e+001	5.265276e+001	-2.000000e+002	0.000000e+000	-2.000000e+002	0.000000e+000
11799820.000	2.967222e-003	-4.276122e+001	-6.585303e+001	5.117001e+001	-2.000000e+002	0.000000e+000	-2.000000e+002	0.000000e+000
12449810.000	3.241880e-003	-4.511843e+001	-6.543281e+001	4.840950e+001	-2.000000e+002	0.000000e+000	-2.000000e+002	0.000000e+000
13099800.000	3.624199e-003	-4.747613e+001	-6.492633e+001	4.737717e+001	-2.000000e+002	0.000000e+000	-2.000000e+002	0.000000e+000
13749790.000	1.076554e-003	-4.982942e+001	-6.453435e+001	4.529199e+001	-2.000000e+002	0.000000e+000	-2.000000e+002	0.000000e+000
14399780.000	-9.467998e-004	-5.218800e+001	-6.409008e+001	4.252857e+001	-2.000000e+002	0.000000e+000	-2.000000e+002	0.000000e+000
15049770.000	-2.781487e-003	-5.455361e+001	-6.376013e+001	4.013516e+001	-2.000000e+002	0.000000e+000	-2.000000e+002	0.000000e+000
15699760.000	-3.665691e-003	-5.689446e+001	-6.332406e+001	3.800573e+001	-2.000000e+002	0.000000e+000	-2.000000e+002	0.000000e+000
16349750.000	-6.404869e-003	-5.925607e+001	-6.296583e+001	3.609540e+001	-2.000000e+002	0.000000e+000	-2.000000e+002	0.000000e+000
16999740.000	-9.628200e-003	-6.162638e+001	-6.251568e+001	3.422154e+001	-2.000000e+002	0.000000e+000	-2.000000e+002	0.000000e+000
17649730.000	-6.420498e-003	-6.399989e+001	-6.215340e+001	3.187853e+001	-2.000000e+002	0.000000e+000	-2.000000e+002	0.000000e+000
18299720.000	-6.639315e-003	-6.636925e+001	-6.169038e+001	3.111493e+001	-2.000000e+002	0.000000e+000	-2.000000e+002	0.000000e+000
18949710.000	-1.048931e-002	-6.873484e+001	-6.126711e+001	2.911272e+001	-2.000000e+002	0.000000e+000	-2.000000e+002	0.000000e+000
19599700.000	-1.915894e-002	-7.109865e+001	-6.070977e+001	2.639993e+001	-2.000000e+002	0.000000e+000	-2.000000e+002	0.000000e+000
20249690.000	-2.522527e-002	-7.346636e+001	-6.023207e+001	2.419179e+001	-2.000000e+002	0.000000e+000	-2.000000e+002	0.000000e+000
20899680.000	-2.863754e-002	-7.586573e+001	-5.979082e+001	2.071328e+001	-2.000000e+002	0.000000e+000	-2.000000e+002	0.000000e+000
21549670.000	-3.187422e-002	-7.825041e+001	-5.954672e+001	1.776910e+001	-2.000000e+002	0.000000e+000	-2.000000e+002	0.000000e+000
22199660.000	-3.581918e-002	-8.062372e+001	-5.922102e+001	1.517066e+001	-2.000000e+002	0.000000e+000	-2.000000e+002	0.000000e+000
22849650.000	-3.937536e-002	-8.298371e+001	-5.886551e+001	1.326091e+001	-2.000000e+002	0.000000e+000	-2.000000e+002	0.000000e+000
23499640.000	-4.462653e-002	-8.537227e+001	-5.864276e+001	1.140895e+001	-2.000000e+002	0.000000e+000	-2.000000e+002	0.000000e+000
24149630.000	-5.046566e-002	-8.776735e+001	-5.824678e+001	9.529035e+000	-2.000000e+002	0.000000e+000	-2.000000e+002	0.000000e+000
24799620.000	-5.562273e-002	-9.016047e+001	-5.777272e+001	7.229706e+000	-2.000000e+002	0.000000e+000	-2.000000e+002	0.000000e+000
25449610.000	-5.865752e-002	-9.254862e+001	-5.739907e+001	4.411107e+000	-2.000000e+002	0.000000e+000	-2.000000e+002	0.000000e+000
26099600.000	-6.494309e-002	-9.494491e+001	-5.697646e+001	1.802296e+000	-2.000000e+002	0.000000e+000	-2.000000e+002	0.000000e+000
26749590.000	-7.071361e-002	-9.734281e+001	-5.646334e+001	-9.688709e-001	-2.000000e+002	0.000000e+000	-2.000000e+002	0.000000e+000
27399580.000	-7.676661e-002	-9.974886e+001	-5.616159e+001	-4.568782e+000	-2.000000e+002	0.000000e+000	-2.000000e+002	0.000000e+000
28049570.000	-8.223259e-002	-1.021523e+002	-5.586908e+001	-7.658250e+000	-2.000000e+002	0.000000e+000	-2.000000e+002	0.000000e+000
28699560.000	-8.864886e-002	-1.045591e+002	-5.566711e+001	-1.026857e+001	-2.000000e+002	0.000000e+000	-2.000000e+002	0.000000e+000
29349550.000	-9.550948e-002	-1.069682e+002	-5.566770e+001	-1.358697e+001	-2.000000e+002	0.000000e+000	-2.000000e+002	0.000000e+000
29999540.000	-1.023568e-001	-1.093839e+002	-5.523920e+001	-1.502152e+001	-2.000000e+002	0.000000e+000	-2.000000e+002	0.000000e+000
30649530.000	-1.097093e-001	-1.118050e+002	-5.499015e+001	-1.612145e+001	-2.000000e+002	0.000000e+000	-2.000000e+002	0.000000e+000
31299520.000	-1.166116e-001	-1.142288e+002	-5.471076e+001	-1.719002e+001	-2.000000e+002	0.000000e+000	-2.000000e+002	0.000000e+000
31949510.000	-1.245852e-001	-1.166520e+002	-5.424170e+001	-1.764845e+001	-2.000000e+002	0.000000e+000	-2.000000e+002	0.000000e+000
32599500.000	-1.329452e-001	-1.190801e+002	-5.363605e+001	-1.897659e+001	-2.000000e+002	0.000000e+000	-2.000000e+002	0.000000e+000
33249490.000	-1.408929e-001	-1.215063e+002	-5.305817e+001	-2.080704e+001	-2.000000e+002	0.000000e+000	-2.000000e+002	0.000000e+000
33899480.000	-1.492620e-001	-1.239372e+002	-5.244825e+001	-2.257675e+001	-2.000000e+002	0.000000e+000	-2.000000e+002	0.000000e+000
34549470.000	-1.580454e-001	-1.263690e+002	-5.185517e+001	-2.513530e+001	-2.000000e+002	0.000000e+000	-2.000000e+002	0.000000e+000
35199460.000	-1.668201e-001	-1.288095e+002	-5.132170e+001	-2.663526e+001	-2.000000e+002	0.000000e+000	-2.000000e+002	0.000000e+000
35849450.000	-1.765936e-001	-1.312522e+002	-5.058936e+001	-2.734090e+001	-2.000000e+002	0.000000e+000	-2.000000e+002	0.000000e+000
36499440.000	-1.863464e-001	-1.336929e+002	-4.955059e+001	-2.893433e+001	-2.000000e+002	0.000000e+000	-2.000000e+002	0.000000e+000
37149430.000	-1.959908e-001	-1.361410e+002	-4.848438e+001	-3.202533e+001	-2.000000e+002	0.000000e+000	-2.000000e+002	0.000000e+000
37799420.000	-2.052536e-001	-1.385946e+002	-4.744908e+001	-3.573168e+001	-2.000000e+002	0.000000e+000	-2.000000e+002	0.000000e+000
38449410.000	-2.147634e-001	-1.410486e+002	-4.634100e+001	-3.964245e+001	-2.000000e+002	0.000000e+000	-2.000000e+002	0.000000e+000
39099400.000	-2.245298e-001	-1.435156e+002	-4.515686e+001	-4.444996e+001	-2.000000e+002	0.000000e+000	-2.000000e+002	0.000000e+000
39749390.000	-2.346723e-001	-1.459938e+002	-4.395258e+001	-4.980757e+001	-2.000000e+002	0.000000e+000	-2.000000e+002	0.000000e+000
40399380.000	-2.458934e-001	-1.484928e+002	-4.269216e+001	-5.554223e+001	-2.000000e+002	0.000000e+000	-2.000000e+002	0.000000e+000
41049370.000	-2.598727e-001	-1.510165e+002	-4.125511e+001	-6.126033e+001	-2.000000e+002	0.000000e+000	-2.000000e+002	0.000000e+000
41699360.000	-2.785604e-001	-1.535729e+002	-3.949103e+001	-6.784847e+001	-2.000000e+002	0.000000e+000	-2.000000e+002	0.000000e+000
42349350.000	-3.077063e-001	-1.561813e+002	-3.724543e+001	-7.610513e+001	-2.000000e+002	0.000000e+000	-2.000000e+002	0.000000e+000
42999340.000	-3.630814e-001	-1.588577e+002	-3.424721e+001	-8.866528e+001	-2.000000e+002	0.000000e+000	-2.000000e+002	0.000000e+000
43649330.000	-5.028038e-001	-1.614543e+002	-3.031897e+001	-1.129011e+002	-2.000000e+002	0.000000e+000	-2.000000e+002	0.000000e+000
44299320.000	-6.709953e-001	-1.622702e+002	-2.785258e+001	-1.649588e+002	-2.000000e+002	0.000000e+000	-2.000000e+002	0.000000e+000
44949310.000	-4.488112e-001	-1.637733e+002	-3.152838e+001	1.474685e+002	-2.000000e+002	0.000000e+000	-2.000000e+002	0.000000e+000
45599300.000	-3.561205e-001	-1.665746e+002	-3.582941e+001	1.260634e+002	-2.000000e+002	0.000000e+000	-2.000000e+002	0.000000e+000
46249290.000	-3.326993e-001	-1.692841e+002	-3.915587e+001	1.144862e+002	-2.000000e+002	0.000000e+000	-2.000000e+002	0.000000e+000
46899280.000	-3.278925e-001	-1.718925e+002	-4.179270e+001	1.064340e+002	-2.000000e+002	0.000000e+000	-2.000000e+002	0.000000e+000
47549270.000	-3.287126e-001	-1.744457e+002	-4.389946e+001	9.991190e+001	-2.000000e+002	0.000000e+000	-2.000000e+002	0.000000e+000
48199260.000	-3.332461e-001	-1.769725e+002	-4.553518e+001	9.317191e+001	-2.000000e+002	0.000000e+000	-2.000000e+002	0.000000e+000
48849250.000	-3.405865e-001	-1.794698e+002	-4.713035e+001	8.351301e+001	-2.000000e+002	0.000000e+000	-2.000000e+002	0.000000e+000
49499240.000	-3.469440e-001	1.780595e+002	-4.933334e+001	7.417830e+001	-2.000000e+002	0.000000e+000	-2.000000e+002	0.000000e+000
50149230.000	-3.510996e-001	1.755919e+002	-5.162011e+001	6.898076e+001	-2.000000e+002	0.000000e+000	-2.000000e+002	0.000000e+000
50799220.000	-3.554958e-001	1.731252e+002	-5.351530e+001	6.591430e+001	-2.000000e+002	0.000000e+000	-2.000000e+002	0.000000e+000
51449210.000	-3.602203e-001	1.706504e+002	-5.515584e+001	6.241207e+001	-2.000000e+002	0.000000e+000	-2.000000e+002	0.000000e+000
52099200.000	-3.655000e-001	1.681825e+002	-5.656648e+001	5.832408e+001	-2.000000e+002	0.000000e+000	-2.000000e+002	0.000000e+000
52749190.000	-3.708122e-001	1.657186e+002	-5.796633e+001	5.279083e+001	-2.000000e+002	0.000000e+000	-2.000000e+002	0.000000e+000
53399180.000	-3.764059e-001	1.632585e+002	-5.935724e+001	4.653493e+001	-2.000000e+002	0.000000e+000	-2.000000e+002	0.000000e+000
54049170.000	-3.821653e-001	1.607966e+002	-6.084046e+001	4.067741e+001	-2.000000e+002	0.000000e+000	-2.000000e+002	0.000000e+000
54699160.000	-3.876385e-001	1.583384e+002	-6.224241e+001	3.378442e+001	-2.000000e+002	0.000000e+000	-2.000000e+002	0.000000e+000
55349150.000	-3.935000e-001	1.558827e+002	-6.339170e+001	2.506285e+001	-2.000000e+002	0.000000e+000	-2.000000e+002	0.000000e+000
55999140.000	-3.990979e-001	1.534299e+002	-6.424207e+001	1.370658e+001	-2.000000e+002	0.000000e+000	-2.000000e+002	0.000000e+000
56649130.000	-4.048390e-001	1.509819e+002	-6.520667e+001	1.017752e+000	-2.000000e+002	0.000000e+000	-2.000000e+002	0.000000e+000
57299120.000	-4.100315e-001	1.485350e+002	-6.571530e+001	-1.417784e+001	-2.000000e+002	0.000000e+000	-2.000000e+002	0.000000e+000
57949110.000	-4.151708e-001	1.460873e+002	-6.590931e+001	-2.797559e+001	-2.000000e+002	0.000000e+000	-2.000000e+002	0.000000e+000
58599100.000	-4.197199e-001	1.436430e+002	-6.572599e+001	-4.215426e+001	-2.000000e+002	0.000000e+000	-2.000000e+002	0.000000e+000
59249090.000	-4.249008e-001	1.412017e+002	-6.541175e+001	-5.447531e+001	-2.000000e+002	0.000000e+000	-2.000000e+002	0.000000e+000
59899080.000	-4.295098e-001	1.387614e+002	-6.520955e+001	-6.613782e+001	-2.000000e+002	0.000000e+000	-2.000000e+002	0.000000e+000
60549070.000	-4.343578e-001	1.363261e+002	-6.440898e+001	-7.347282e+001	-2.000000e+002	0.000000e+000	-2.000000e+002	0.000000e+000
61199060.000	-4.389717e-001	1.338941e+002	-6.372005e+001	-7.996606e+001	-2.000000e+002	0.000000e+000	-2.000000e+002	0.000000e+000
61849050.000	-4.433582e-001	1.314645e+002	-6.283702e+001	-8.730674e+001	-2.000000e+002	0.000000e+000	-2.000000e+002	0.000000e+000
62499040.000	-4.474536e-001	1.290343e+002	-6.195352e+001	-9.490162e+001	-2.000000e+002	0.000000e+000	-2.000000e+002	0.000000e+000
63149030.000	-4.508098e-001	1.266080e+002	-6.123117e+001	-1.030733e+002	-2.000000e+002	0.000000e+000	-2.000000e+002	0.000000e+000
63799020.000	-4.543693e-001	1.241837e+002	-6.075777e+001	-1.101667e+002	-2.000000e+002	0.000000e+000	-2.000000e+002	0.000000e+000
64449010.000	-4.577797e-001	1.217605e+002	-6.042598e+001	-1.169691e+002	-2.000000e+002	0.000000e+000	-2.000000e+002	0.000000e+000
65099000.000	-4.603067e-001	1.193328e+002	-6.034921e+001	-1.221084e+002	-2.000000e+002	0.000000e+000	-2.000000e+002	0.000000e+000
65748990.000	-4.629329e-001	1.169074e+002	-6.008744e+001	-1.257993e+002	-2.000000e+002	0.000000e+000	-2.000000e+002	0.000000e+000
66398980.000	-4.662813e-001	1.144891e+002	-5.993645e+001	-1.296500e+002	-2.000000e+002	0.000000e+000	-2.000000e+002	0.000000e+000
67048970.000	-4.686107e-001	1.120703e+002	-5.960699e+001	-1.329137e+002	-2.000000e+002	0.000000e+000	-2.000000e+002	0.000000e+000
67698960.000	-4.714833e-001	1.096578e+002	-5.925827e+001	-1.368422e+002	-2.000000e+002	0.000000e+000	-2.000000e+002	0.000000e+000
68348950.000	-4.731818e-001	1.072450e+002	-5.889593e+001	-1.403575e+002	-2.000000e+002	0.000000e+000	-2.000000e+002	0.000000e+000
68998940.000	-4.757817e-001	1.048361e+002	-5.875050e+001	-1.448402e+002	-2.000000e+002	0.000000e+000	-2.000000e+002	0.000000e+000
69648930.000	-4.772177e-001	1.024240e+002	-5.855127e+001	-1.485802e+002	-2.000000e+002	0.000000e+000	-2.000000e+002	0.000000e+000
70298920.000	-4.793122e-001	1.000068e+002	-5.852888e+001	-1.522675e+002	-2.000000e+002	0.000000e+000	-2.000000e+002	0.000000e+000
70948910.000	-4.816503e-001	9.760101e+001	-5.841506e+001	-1.548265e+002	-2.000000e+002	0.000000e+000	-2.000000e+002	0.000000e+000
71598900.000	-4.822800e-001	9.519474e+001	-5.837702e+001	-1.570923e+002	-2.000000e+002	0.000000e+000	-2.000000e+002	0.000000e+000
72248890.000	-4.844439e-001	9.279562e+001	-5.823803e+001	-1.598546e+002	-2.000000e+002	0.000000e+000	-2.000000e+002	0.000000e+000
72898880.000	-4.853664e-001	9.039186e+001	-5.815772e+001	-1.620875e+002	-2.000000e+002	0.000000e+000	-2.000000e+002	0.000000e+000
73548870.000	-4.869579e-001	8.799771e+001	-5.802942e+001	-1.646033e+002	-2.000000e+002	0.000000e+000	-2.000000e+002	0.000000e+000
74198860.000	-4.878221e-001	8.560006e+001	-5.793565e+001	-1.666618e+002	-2.000000e+002	0.000000e+000	-2.000000e+002	0.000000e+000
74848850.000	-4.890822e-001	8.320980e+001	-5.780553e+001	-1.687210e+002	-2.000000e+002	0.000000e+000	-2.000000e+002	0.000000e+000
75498840.000	-4.890507e-001	8.081807e+001	-5.766397e+001	-1.712452e+002	-2.000000e+002	0.000000e+000	-2.000000e+002	0.000000e+000
76148830.000	-4.894786e-001	7.842872e+001	-5.761428e+001	-1.736721e+002	-2.000000e+002	0.000000e+000	-2.000000e+002	0.000000e+000
76798820.000	-4.891319e-001	7.603993e+001	-5.759468e+001	-1.751873e+002	-2.000000e+002	0.000000e+000	-2.000000e+002	0.000000e+000
77448810.000	-4.894680e-001	7.366835e+001	-5.758994e+001	-1.765844e+002	-2.000000e+002	0.000000e+000	-2.000000e+002	0.000000e+000
78098800.000	-4.900142e-001	7.128899e+001	-5.746580e+001	-1.768577e+002	-2.000000e+002	0.000000e+000	-2.000000e+002	0.000000e+000
78748790.000	-4.903958e-001	6.891264e+001	-5.724200e+001	-1.783147e+002	-2.000000e+002	0.000000e+000	-2.000000e+002	0.000000e+000
79398780.000	-4.892696e-001	6.653663e+001	-5.696597e+001	-1.795223e+002	-2.000000e+002	0.000000e+000	-2.000000e+002	0.000000e+000
80048770.000	-4.897630e-001	6.415569e+001	-5.662821e+001	1.787043e+002	-2.000000e+002	0.000000e+000	-2.000000e+002	0.000000e+000
80698760.000	-4.885301e-001	6.178295e+001	-5.635120e+001	1.764439e+002	-2.000000e+002	0.000000e+000	-2.000000e+002	0.000000e+000
81348750.000	-4.870196e-001	5.941393e+001	-5.610204e+001	1.734847e+002	-2.000000e+002	0.000000e+000	-2.000000e+002	0.000000e+000
81998740.000	-4.850468e-001	5.704786e+001	-5.595336e+001	1.706731e+002	-2.000000e+002	0.000000e+000	-2.000000e+002	0.000000e+000
82648730.000	-4.835156e-001	5.469158e+001	-5.578417e+001	1.681194e+002	-2.000000e+002	0.000000e+000	-2.000000e+002	0.000000e+000
83298720.000	-4.822428e-001	5.232591e+001	-5.572988e+001	1.657382e+002	-2.000000e+002	0.000000e+000	-2.000000e+002	0.000000e+000
83948710.000	-4.803540e-001	4.995858e+001	-5.565677e+001	1.636209e+002	-2.000000e+002	0.000000e+000	-2.000000e+002	0.000000e+000
84598700.000	-4.785185e-001	4.759253e+001	-5.555001e+001	1.615228e+002	-2.000000e+002	0.000000e+000	-2.000000e+002	0.000000e+000
85248690.000	-4.770690e-001	4.522719e+001	-5.543023e+001	1.593891e+002	-2.000000e+002	0.000000e+000	-2.000000e+002	0.000000e+000
85898680.000	-4.750009e-001	4.287210e+001	-5.524420e+001	1.574821e+002	-2.000000e+002	0.000000e+000	-2.000000e+002	0.000000e+000
86548670.000	-4.724071e-001	4.051713e+001	-5.513555e+001	1.552187e+002	-2.000000e+002	0.000000e+000	-2.000000e+002	0.000000e+000
87198660.000	-4.701339e-001	3.816155e+001	-5.506047e+001	1.529202e+002	-2.000000e+002	0.000000e+000	-2.000000e+002	0.000000e+000
87848650.000	-4.680858e-001	3.581079e+001	-5.506281e+001	1.514363e+002	-2.000000e+002	0.000000e+000	-2.000000e+002	0.000000e+000
88498640.000	-4.657701e-001	3.345881e+001	-5.483639e+001	1.493702e+002	-2.000000e+002	0.000000e+000	-2.000000e+002	0.000000e+000
89148630.000	-4.638372e-001	3.111243e+001	-5.474168e+001	1.474166e+002	-2.000000e+002	0.000000e+000	-2.000000e+002	0.000000e+000
89798620.000	-4.610892e-001	2.876019e+001	-5.459020e+001	1.453053e+002	-2.000000e+002	0.000000e+000	-2.000000e+002	0.000000e+000
90448610.000	-4.581427e-001	2.640845e+001	-5.454014e+001	1.432585e+002	-2.000000e+002	0.000000e+000	-2.000000e+002	0.000000e+000
91098600.000	-4.561018e-001	2.405566e+001	-5.440999e+001	1.409169e+002	-2.000000e+002	0.000000e+000	-2.000000e+002	0.000000e+000
91748590.000	-4.533117e-001	2.170605e+001	-5.431051e+001	1.387704e+002	-2.000000e+002	0.000000e+000	-2.000000e+002	0.000000e+000
92398580.000	-4.502843e-001	1.935733e+001	-5.432730e+001	1.368695e+002	-2.000000e+002	0.000000e+000	-2.000000e+002	0.000000e+000
93048570.000	-4.470305e-001	1.701173e+001	-5.451342e+001	1.360564e+002	-2.000000e+002	0.000000e+000	-2.000000e+002	0.000000e+000
93698560.000	-4.450756e-001	1.466482e+001	-5.428507e+001	1.333732e+002	-2.000000e+002	0.000000e+000	-2.000000e+002	0.000000e+000
94348550.000	-4.421070e-001	1.231761e+001	-5.431042e+001	1.320827e+002	-2.000000e+002	0.000000e+000	-2.000000e+002	0.000000e+000
94998540.000	-4.401572e-001	9.975235e+000	-5.414121e+001	1.307452e+002	-2.000000e+002	0.000000e+000	-2.000000e+002	0.000000e+000
95648530.000	-4.374015e-001	7.634735e+000	-5.410887e+001	1.298540e+002	-2.000000e+002	0.000000e+000	-2.000000e+002	0.000000e+000
96298520.000	-4.343644e-001	5.293878e+000	-5.408347e+001	1.290238e+002	-2.000000e+002	0.000000e+000	-2.000000e+002	0.000000e+000
96948510.000	-4.320443e-001	2.953788e+000	-5.406455e+001	1.283451e+002	-2.000000e+002	0.000000e+000	-2.000000e+002	0.000000e+000
97598500.000	-4.302333e-001	6.161038e-001	-5.394903e+001	1.278386e+002	-2.000000e+002	0.000000e+000	-2.000000e+002	0.000000e+000
98248490.000	-4.272130e-001	-1.725484e+000	-5.382612e+001	1.284952e+002	-2.000000e+002	0.000000e+000	-2.000000e+002	0.000000e+000
