!Keysight Technologies,E5063A,MY54503115,A.05.08
!Date: Mon Mar 04 19:47:39 2024
!Data & Calibration Information:
!Freq	S11:NONE(--)	S21:NONE(--)	S12:NONE(--)	S22:NONE(--)
# Hz S dB R 50
100000.000	4.626428e-002	-7.722102e-001	-8.288644e+001	1.483397e+001	-2.000000e+002	0.000000e+000	-2.000000e+002	0.000000e+000
749990.000	1.101019e-002	-3.043114e+000	-8.418355e+001	-8.392316e+001	-2.000000e+002	0.000000e+000	-2.000000e+002	0.000000e+000
1399980.000	1.275878e-002	-5.350817e+000	-8.898509e+001	-1.574003e+002	-2.000000e+002	0.000000e+000	-2.000000e+002	0.000000e+000
2049970.000	1.221425e-002	-7.676109e+000	-7.986919e+001	1.141125e+002	-2.000000e+002	0.000000e+000	-2.000000e+002	0.000000e+000
2699960.000	1.280117e-002	-1.000248e+001	-7.918119e+001	9.672258e+001	-2.000000e+002	0.000000e+000	-2.000000e+002	0.000000e+000
3349950.000	1.661715e-002	-1.233812e+001	-7.494601e+001	7.372417e+001	-2.000000e+002	0.000000e+000	-2.000000e+002	0.000000e+000
3999940.000	1.546967e-002	-1.466409e+001	-7.516048e+001	8.653157e+001	-2.000000e+002	0.000000e+000	-2.000000e+002	0.000000e+000
4649930.000	1.798704e-002	-1.701051e+001	-7.272338e+001	7.737775e+001	-2.000000e+002	0.000000e+000	-2.000000e+002	0.000000e+000
5299920.000	1.599655e-002	-1.933884e+001	-7.373800e+001	7.660803e+001	-2.000000e+002	0.000000e+000	-2.000000e+002	0.000000e+000
5949910.000	1.624906e-002	-2.167522e+001	-7.244029e+001	7.423257e+001	-2.000000e+002	0.000000e+000	-2.000000e+002	0.000000e+000
6599900.000	1.588624e-002	-2.401142e+001	-7.084356e+001	6.987564e+001	-2.000000e+002	0.000000e+000	-2.000000e+002	0.000000e+000
7249890.000	1.571204e-002	-2.635441e+001	-7.020246e+001	7.029776e+001	-2.000000e+002	0.000000e+000	-2.000000e+002	0.000000e+000
7899880.000	1.597631e-002	-2.869499e+001	-6.916645e+001	6.808610e+001	-2.000000e+002	0.000000e+000	-2.000000e+002	0.000000e+000
8549870.000	1.967926e-002	-3.103857e+001	-6.857531e+001	6.171083e+001	-2.000000e+002	0.000000e+000	-2.000000e+002	0.000000e+000
9199860.000	1.878031e-002	-3.338269e+001	-6.780753e+001	5.959517e+001	-2.000000e+002	0.000000e+000	-2.000000e+002	0.000000e+000
9849850.000	1.771366e-002	-3.572462e+001	-6.715029e+001	5.809128e+001	-2.000000e+002	0.000000e+000	-2.000000e+002	0.000000e+000
10499840.000	1.510012e-002	-3.806443e+001	-6.646879e+001	5.524188e+001	-2.000000e+002	0.000000e+000	-2.000000e+002	0.000000e+000
11149830.000	1.248821e-002	-4.040311e+001	-6.599882e+001	5.270210e+001	-2.000000e+002	0.000000e+000	-2.000000e+002	0.000000e+000
11799820.000	1.113457e-002	-4.274916e+001	-6.539455e+001	5.089344e+001	-2.000000e+002	0.000000e+000	-2.000000e+002	0.000000e+000
12449810.000	1.120429e-002	-4.510185e+001	-6.498634e+001	4.837259e+001	-2.000000e+002	0.000000e+000	-2.000000e+002	0.000000e+000
13099800.000	1.285135e-002	-4.745086e+001	-6.449497e+001	4.501791e+001	-2.000000e+002	0.000000e+000	-2.000000e+002	0.000000e+000
13749790.000	1.049260e-002	-4.979592e+001	-6.397989e+001	4.328830e+001	-2.000000e+002	0.000000e+000	-2.000000e+002	0.000000e+000
14399780.000	7.884052e-003	-5.215724e+001	-6.343802e+001	4.072845e+001	-2.000000e+002	0.000000e+000	-2.000000e+002	0.000000e+000
15049770.000	7.565709e-003	-5.451624e+001	-6.307180e+001	3.864433e+001	-2.000000e+002	0.000000e+000	-2.000000e+002	0.000000e+000
15699760.000	6.708745e-003	-5.685925e+001	-6.266675e+001	3.622563e+001	-2.000000e+002	0.000000e+000	-2.000000e+002	0.000000e+000
16349750.000	4.892495e-003	-5.921828e+001	-6.222704e+001	3.380573e+001	-2.000000e+002	0.000000e+000	-2.000000e+002	0.000000e+000
16999740.000	2.644954e-003	-6.159201e+001	-6.183271e+001	3.123769e+001	-2.000000e+002	0.000000e+000	-2.000000e+002	0.000000e+000
17649730.000	6.109663e-003	-6.396490e+001	-6.149592e+001	2.933498e+001	-2.000000e+002	0.000000e+000	-2.000000e+002	0.000000e+000
18299720.000	6.869722e-003	-6.634103e+001	-6.101136e+001	2.612394e+001	-2.000000e+002	0.000000e+000	-2.000000e+002	0.000000e+000
18949710.000	2.766096e-003	-6.871418e+001	-6.077922e+001	2.348947e+001	-2.000000e+002	0.000000e+000	-2.000000e+002	0.000000e+000
19599700.000	-5.696626e-003	-7.108443e+001	-6.038965e+001	2.133047e+001	-2.000000e+002	0.000000e+000	-2.000000e+002	0.000000e+000
20249690.000	-1.219713e-002	-7.345895e+001	-6.006805e+001	1.894292e+001	-2.000000e+002	0.000000e+000	-2.000000e+002	0.000000e+000
20899680.000	-1.684091e-002	-7.586277e+001	-5.974595e+001	1.672307e+001	-2.000000e+002	0.000000e+000	-2.000000e+002	0.000000e+000
21549670.000	-2.133572e-002	-7.824910e+001	-5.944130e+001	1.423135e+001	-2.000000e+002	0.000000e+000	-2.000000e+002	0.000000e+000
22199660.000	-2.591733e-002	-8.062142e+001	-5.912379e+001	1.153212e+001	-2.000000e+002	0.000000e+000	-2.000000e+002	0.000000e+000
22849650.000	-2.996247e-002	-8.298277e+001	-5.882783e+001	9.774308e+000	-2.000000e+002	0.000000e+000	-2.000000e+002	0.000000e+000
23499640.000	-3.598720e-002	-8.536908e+001	-5.861478e+001	7.287130e+000	-2.000000e+002	0.000000e+000	-2.000000e+002	0.000000e+000
24149630.000	-4.269916e-002	-8.776723e+001	-5.831138e+001	5.513727e+000	-2.000000e+002	0.000000e+000	-2.000000e+002	0.000000e+000
24799620.000	-4.795703e-002	-9.015621e+001	-5.789426e+001	4.231777e+000	-2.000000e+002	0.000000e+000	-2.000000e+002	0.000000e+000
25449610.000	-5.234042e-002	-9.254138e+001	-5.756214e+001	2.065044e+000	-2.000000e+002	0.000000e+000	-2.000000e+002	0.000000e+000
26099600.000	-5.862918e-002	-9.493405e+001	-5.709106e+001	-1.105826e-001	-2.000000e+002	0.000000e+000	-2.000000e+002	0.000000e+000
26749590.000	-6.484862e-002	-9.733279e+001	-5.669931e+001	-3.186440e+000	-2.000000e+002	0.000000e+000	-2.000000e+002	0.000000e+000
27399580.000	-7.136451e-002	-9.973569e+001	-5.635420e+001	-6.432879e+000	-2.000000e+002	0.000000e+000	-2.000000e+002	0.000000e+000
28049570.000	-7.671393e-002	-1.021387e+002	-5.615766e+001	-8.715956e+000	-2.000000e+002	0.000000e+000	-2.000000e+002	0.000000e+000
28699560.000	-8.376406e-002	-1.045442e+002	-5.594095e+001	-1.162790e+001	-2.000000e+002	0.000000e+000	-2.000000e+002	0.000000e+000
29349550.000	-9.098069e-002	-1.069525e+002	-5.586128e+001	-1.374927e+001	-2.000000e+002	0.000000e+000	-2.000000e+002	0.000000e+000
29999540.000	-9.737451e-002	-1.093657e+002	-5.559161e+001	-1.435090e+001	-2.000000e+002	0.000000e+000	-2.000000e+002	0.000000e+000
30649530.000	-1.051199e-001	-1.117877e+002	-5.536972e+001	-1.574939e+001	-2.000000e+002	0.000000e+000	-2.000000e+002	0.000000e+000
31299520.000	-1.125363e-001	-1.142078e+002	-5.509108e+001	-1.586257e+001	-2.000000e+002	0.000000e+000	-2.000000e+002	0.000000e+000
31949510.000	-1.206293e-001	-1.166333e+002	-5.450924e+001	-1.561128e+001	-2.000000e+002	0.000000e+000	-2.000000e+002	0.000000e+000
32599500.000	-1.293058e-001	-1.190587e+002	-5.384642e+001	-1.633019e+001	-2.000000e+002	0.000000e+000	-2.000000e+002	0.000000e+000
33249490.000	-1.378044e-001	-1.214832e+002	-5.311873e+001	-1.825526e+001	-2.000000e+002	0.000000e+000	-2.000000e+002	0.000000e+000
33899480.000	-1.461315e-001	-1.239143e+002	-5.246598e+001	-2.041111e+001	-2.000000e+002	0.000000e+000	-2.000000e+002	0.000000e+000
34549470.000	-1.546374e-001	-1.263442e+002	-5.190489e+001	-2.287499e+001	-2.000000e+002	0.000000e+000	-2.000000e+002	0.000000e+000
35199460.000	-1.639802e-001	-1.287853e+002	-5.136945e+001	-2.349062e+001	-2.000000e+002	0.000000e+000	-2.000000e+002	0.000000e+000
35849450.000	-1.740157e-001	-1.312256e+002	-5.044258e+001	-2.379687e+001	-2.000000e+002	0.000000e+000	-2.000000e+002	0.000000e+000
36499440.000	-1.835362e-001	-1.336620e+002	-4.923335e+001	-2.592039e+001	-2.000000e+002	0.000000e+000	-2.000000e+002	0.000000e+000
37149430.000	-1.928271e-001	-1.361045e+002	-4.813157e+001	-3.016898e+001	-2.000000e+002	0.000000e+000	-2.000000e+002	0.000000e+000
37799420.000	-2.015739e-001	-1.385561e+002	-4.708979e+001	-3.449295e+001	-2.000000e+002	0.000000e+000	-2.000000e+002	0.000000e+000
38449410.000	-2.107440e-001	-1.410092e+002	-4.600487e+001	-3.890768e+001	-2.000000e+002	0.000000e+000	-2.000000e+002	0.000000e+000
39099400.000	-2.195350e-001	-1.434753e+002	-4.492987e+001	-4.460048e+001	-2.000000e+002	0.000000e+000	-2.000000e+002	0.000000e+000
39749390.000	-2.283261e-001	-1.459567e+002	-4.388511e+001	-5.022457e+001	-2.000000e+002	0.000000e+000	-2.000000e+002	0.000000e+000
40399380.000	-2.389061e-001	-1.484583e+002	-4.278196e+001	-5.535237e+001	-2.000000e+002	0.000000e+000	-2.000000e+002	0.000000e+000
41049370.000	-2.516446e-001	-1.509799e+002	-4.141338e+001	-6.041964e+001	-2.000000e+002	0.000000e+000	-2.000000e+002	0.000000e+000
41699360.000	-2.676800e-001	-1.535320e+002	-3.970229e+001	-6.632839e+001	-2.000000e+002	0.000000e+000	-2.000000e+002	0.000000e+000
42349350.000	-2.905523e-001	-1.561433e+002	-3.751580e+001	-7.379950e+001	-2.000000e+002	0.000000e+000	-2.000000e+002	0.000000e+000
42999340.000	-3.332554e-001	-1.588549e+002	-3.461474e+001	-8.492553e+001	-2.000000e+002	0.000000e+000	-2.000000e+002	0.000000e+000
43649330.000	-4.512079e-001	-1.616743e+002	-3.064195e+001	-1.056863e+002	-2.000000e+002	0.000000e+000	-2.000000e+002	0.000000e+000
44299320.000	-7.215580e-001	-1.629329e+002	-2.706070e+001	-1.553259e+002	-2.000000e+002	0.000000e+000	-2.000000e+002	0.000000e+000
44949310.000	-4.990100e-001	-1.636710e+002	-3.045580e+001	1.498175e+002	-2.000000e+002	0.000000e+000	-2.000000e+002	0.000000e+000
45599300.000	-3.736680e-001	-1.664705e+002	-3.508869e+001	1.262864e+002	-2.000000e+002	0.000000e+000	-2.000000e+002	0.000000e+000
46249290.000	-3.421172e-001	-1.692120e+002	-3.861075e+001	1.135381e+002	-2.000000e+002	0.000000e+000	-2.000000e+002	0.000000e+000
46899280.000	-3.344875e-001	-1.718355e+002	-4.144215e+001	1.043855e+002	-2.000000e+002	0.000000e+000	-2.000000e+002	0.000000e+000
47549270.000	-3.344329e-001	-1.743926e+002	-4.385784e+001	9.686848e+001	-2.000000e+002	0.000000e+000	-2.000000e+002	0.000000e+000
48199260.000	-3.375263e-001	-1.769135e+002	-4.604312e+001	9.002560e+001	-2.000000e+002	0.000000e+000	-2.000000e+002	0.000000e+000
48849250.000	-3.417379e-001	-1.794097e+002	-4.810290e+001	8.371038e+001	-2.000000e+002	0.000000e+000	-2.000000e+002	0.000000e+000
49499240.000	-3.462201e-001	1.781052e+002	-5.017674e+001	7.811554e+001	-2.000000e+002	0.000000e+000	-2.000000e+002	0.000000e+000
50149230.000	-3.499873e-001	1.756255e+002	-5.218152e+001	7.410437e+001	-2.000000e+002	0.000000e+000	-2.000000e+002	0.000000e+000
50799220.000	-3.546659e-001	1.731522e+002	-5.393061e+001	7.030069e+001	-2.000000e+002	0.000000e+000	-2.000000e+002	0.000000e+000
51449210.000	-3.596321e-001	1.706736e+002	-5.557662e+001	6.575519e+001	-2.000000e+002	0.000000e+000	-2.000000e+002	0.000000e+000
52099200.000	-3.649610e-001	1.682056e+002	-5.729715e+001	6.029193e+001	-2.000000e+002	0.000000e+000	-2.000000e+002	0.000000e+000
52749190.000	-3.702041e-001	1.657402e+002	-5.904769e+001	5.520414e+001	-2.000000e+002	0.000000e+000	-2.000000e+002	0.000000e+000
53399180.000	-3.755785e-001	1.632771e+002	-6.093723e+001	5.085309e+001	-2.000000e+002	0.000000e+000	-2.000000e+002	0.000000e+000
54049170.000	-3.809956e-001	1.608137e+002	-6.265705e+001	4.564657e+001	-2.000000e+002	0.000000e+000	-2.000000e+002	0.000000e+000
54699160.000	-3.862964e-001	1.583544e+002	-6.416474e+001	3.765066e+001	-2.000000e+002	0.000000e+000	-2.000000e+002	0.000000e+000
55349150.000	-3.921718e-001	1.558976e+002	-6.566436e+001	2.853969e+001	-2.000000e+002	0.000000e+000	-2.000000e+002	0.000000e+000
55999140.000	-3.972880e-001	1.534426e+002	-6.684832e+001	1.554650e+001	-2.000000e+002	0.000000e+000	-2.000000e+002	0.000000e+000
56649130.000	-4.024544e-001	1.509920e+002	-6.811503e+001	-1.514099e+000	-2.000000e+002	0.000000e+000	-2.000000e+002	0.000000e+000
57299120.000	-4.075731e-001	1.485425e+002	-6.869598e+001	-1.760758e+001	-2.000000e+002	0.000000e+000	-2.000000e+002	0.000000e+000
57949110.000	-4.125314e-001	1.460952e+002	-6.854916e+001	-3.608736e+001	-2.000000e+002	0.000000e+000	-2.000000e+002	0.000000e+000
58599100.000	-4.173201e-001	1.436454e+002	-6.815757e+001	-5.359706e+001	-2.000000e+002	0.000000e+000	-2.000000e+002	0.000000e+000
59249090.000	-4.221656e-001	1.412041e+002	-6.745925e+001	-6.663760e+001	-2.000000e+002	0.000000e+000	-2.000000e+002	0.000000e+000
59899080.000	-4.267637e-001	1.387607e+002	-6.652652e+001	-7.532996e+001	-2.000000e+002	0.000000e+000	-2.000000e+002	0.000000e+000
60549070.000	-4.313102e-001	1.363260e+002	-6.571065e+001	-8.256299e+001	-2.000000e+002	0.000000e+000	-2.000000e+002	0.000000e+000
61199060.000	-4.362831e-001	1.338921e+002	-6.447976e+001	-8.726914e+001	-2.000000e+002	0.000000e+000	-2.000000e+002	0.000000e+000
61849050.000	-4.401345e-001	1.314567e+002	-6.334726e+001	-9.325396e+001	-2.000000e+002	0.000000e+000	-2.000000e+002	0.000000e+000
62499040.000	-4.444521e-001	1.290312e+002	-6.212306e+001	-9.947533e+001	-2.000000e+002	0.000000e+000	-2.000000e+002	0.000000e+000
63149030.000	-4.478224e-001	1.266033e+002	-6.111155e+001	-1.064447e+002	-2.000000e+002	0.000000e+000	-2.000000e+002	0.000000e+000
63799020.000	-4.512402e-001	1.241771e+002	-6.040012e+001	-1.136472e+002	-2.000000e+002	0.000000e+000	-2.000000e+002	0.000000e+000
64449010.000	-4.546591e-001	1.217560e+002	-5.983399e+001	-1.198509e+002	-2.000000e+002	0.000000e+000	-2.000000e+002	0.000000e+000
65099000.000	-4.567961e-001	1.193310e+002	-5.945009e+001	-1.256920e+002	-2.000000e+002	0.000000e+000	-2.000000e+002	0.000000e+000
65748990.000	-4.591363e-001	1.169068e+002	-5.914723e+001	-1.311050e+002	-2.000000e+002	0.000000e+000	-2.000000e+002	0.000000e+000
66398980.000	-4.620930e-001	1.144866e+002	-5.899554e+001	-1.356813e+002	-2.000000e+002	0.000000e+000	-2.000000e+002	0.000000e+000
67048970.000	-4.641034e-001	1.120671e+002	-5.870207e+001	-1.401781e+002	-2.000000e+002	0.000000e+000	-2.000000e+002	0.000000e+000
67698960.000	-4.664948e-001	1.096535e+002	-5.848128e+001	-1.436474e+002	-2.000000e+002	0.000000e+000	-2.000000e+002	0.000000e+000
68348950.000	-4.680605e-001	1.072385e+002	-5.839500e+001	-1.475854e+002	-2.000000e+002	0.000000e+000	-2.000000e+002	0.000000e+000
68998940.000	-4.703923e-001	1.048286e+002	-5.832327e+001	-1.503969e+002	-2.000000e+002	0.000000e+000	-2.000000e+002	0.000000e+000
69648930.000	-4.716644e-001	1.024151e+002	-5.809732e+001	-1.532229e+002	-2.000000e+002	0.000000e+000	-2.000000e+002	0.000000e+000
70298920.000	-4.727069e-001	9.999572e+001	-5.807542e+001	-1.561146e+002	-2.000000e+002	0.000000e+000	-2.000000e+002	0.000000e+000
70948910.000	-4.748082e-001	9.759023e+001	-5.791207e+001	-1.578987e+002	-2.000000e+002	0.000000e+000	-2.000000e+002	0.000000e+000
71598900.000	-4.756606e-001	9.518330e+001	-5.770141e+001	-1.603003e+002	-2.000000e+002	0.000000e+000	-2.000000e+002	0.000000e+000
72248890.000	-4.776350e-001	9.278659e+001	-5.747387e+001	-1.626958e+002	-2.000000e+002	0.000000e+000	-2.000000e+002	0.000000e+000
72898880.000	-4.779784e-001	9.038490e+001	-5.722422e+001	-1.651807e+002	-2.000000e+002	0.000000e+000	-2.000000e+002	0.000000e+000
73548870.000	-4.794108e-001	8.799008e+001	-5.703641e+001	-1.678488e+002	-2.000000e+002	0.000000e+000	-2.000000e+002	0.000000e+000
74198860.000	-4.796238e-001	8.559509e+001	-5.689111e+001	-1.703800e+002	-2.000000e+002	0.000000e+000	-2.000000e+002	0.000000e+000
74848850.000	-4.806221e-001	8.320348e+001	-5.673485e+001	-1.733243e+002	-2.000000e+002	0.000000e+000	-2.000000e+002	0.000000e+000
75498840.000	-4.805121e-001	8.081151e+001	-5.666014e+001	-1.762090e+002	-2.000000e+002	0.000000e+000	-2.000000e+002	0.000000e+000
76148830.000	-4.809120e-001	7.842308e+001	-5.659186e+001	-1.789147e+002	-2.000000e+002	0.000000e+000	-2.000000e+002	0.000000e+000
76798820.000	-4.800532e-001	7.603595e+001	-5.651995e+001	1.787961e+002	-2.000000e+002	0.000000e+000	-2.000000e+002	0.000000e+000
77448810.000	-4.810661e-001	7.366619e+001	-5.645455e+001	1.770573e+002	-2.000000e+002	0.000000e+000	-2.000000e+002	0.000000e+000
78098800.000	-4.811348e-001	7.128443e+001	-5.638922e+001	1.749408e+002	-2.000000e+002	0.000000e+000	-2.000000e+002	0.000000e+000
78748790.000	-4.808533e-001	6.890678e+001	-5.626728e+001	1.726771e+002	-2.000000e+002	0.000000e+000	-2.000000e+002	0.000000e+000
79398780.000	-4.796320e-001	6.653271e+001	-5.618780e+001	1.708075e+002	-2.000000e+002	0.000000e+000	-2.000000e+002	0.000000e+000
80048770.000	-4.783874e-001	6.414530e+001	-5.604730e+001	1.688444e+002	-2.000000e+002	0.000000e+000	-2.000000e+002	0.000000e+000
80698760.000	-4.770583e-001	6.177827e+001	-5.591001e+001	1.665168e+002	-2.000000e+002	0.000000e+000	-2.000000e+002	0.000000e+000
81348750.000	-4.756622e-001	5.940599e+001	-5.583469e+001	1.646267e+002	-2.000000e+002	0.000000e+000	-2.000000e+002	0.000000e+000
81998740.000	-4.734697e-001	5.703506e+001	-5.571839e+001	1.624230e+002	-2.000000e+002	0.000000e+000	-2.000000e+002	0.000000e+000
82648730.000	-4.734431e-001	5.468318e+001	-5.564959e+001	1.601471e+002	-2.000000e+002	0.000000e+000	-2.000000e+002	0.000000e+000
83298720.000	-4.719090e-001	5.231516e+001	-5.561022e+001	1.584612e+002	-2.000000e+002	0.000000e+000	-2.000000e+002	0.000000e+000
83948710.000	-4.703270e-001	4.994655e+001	-5.555163e+001	1.563971e+002	-2.000000e+002	0.000000e+000	-2.000000e+002	0.000000e+000
84598700.000	-4.683298e-001	4.758269e+001	-5.548848e+001	1.549797e+002	-2.000000e+002	0.000000e+000	-2.000000e+002	0.000000e+000
85248690.000	-4.663834e-001	4.521981e+001	-5.538680e+001	1.530852e+002	-2.000000e+002	0.000000e+000	-2.000000e+002	0.000000e+000
85898680.000	-4.643798e-001	4.286081e+001	-5.527270e+001	1.512849e+002	-2.000000e+002	0.000000e+000	-2.000000e+002	0.000000e+000
86548670.000	-4.620483e-001	4.050377e+001	-5.515216e+001	1.499727e+002	-2.000000e+002	0.000000e+000	-2.000000e+002	0.000000e+000
87198660.000	-4.599704e-001	3.814967e+001	-5.505107e+001	1.483309e+002	-2.000000e+002	0.000000e+000	-2.000000e+002	0.000000e+000
87848650.000	-4.575639e-001	3.579703e+001	-5.495828e+001	1.467920e+002	-2.000000e+002	0.000000e+000	-2.000000e+002	0.000000e+000
88498640.000	-4.556538e-001	3.344756e+001	-5.481364e+001	1.451072e+002	-2.000000e+002	0.000000e+000	-2.000000e+002	0.000000e+000
89148630.000	-4.538198e-001	3.110011e+001	-5.462852e+001	1.435987e+002	-2.000000e+002	0.000000e+000	-2.000000e+002	0.000000e+000
89798620.000	-4.514162e-001	2.875270e+001	-5.447438e+001	1.414897e+002	-2.000000e+002	0.000000e+000	-2.000000e+002	0.000000e+000
90448610.000	-4.488409e-001	2.640338e+001	-5.433780e+001	1.400046e+002	-2.000000e+002	0.000000e+000	-2.000000e+002	0.000000e+000
91098600.000	-4.464873e-001	2.405559e+001	-5.417479e+001	1.380958e+002	-2.000000e+002	0.000000e+000	-2.000000e+002	0.000000e+000
91748590.000	-4.438276e-001	2.170589e+001	-5.401523e+001	1.361172e+002	-2.000000e+002	0.000000e+000	-2.000000e+002	0.000000e+000
92398580.000	-4.407832e-001	1.936255e+001	-5.386469e+001	1.337168e+002	-2.000000e+002	0.000000e+000	-2.000000e+002	0.000000e+000
93048570.000	-4.385006e-001	1.701653e+001	-5.395078e+001	1.302927e+002	-2.000000e+002	0.000000e+000	-2.000000e+002	0.000000e+000
93698560.000	-4.350618e-001	1.466967e+001	-5.376227e+001	1.294862e+002	-2.000000e+002	0.000000e+000	-2.000000e+002	0.000000e+000
94348550.000	-4.322799e-001	1.232379e+001	-5.365094e+001	1.277991e+002	-2.000000e+002	0.000000e+000	-2.000000e+002	0.000000e+000
94998540.000	-4.303047e-001	9.981867e+000	-5.368360e+001	1.267747e+002	-2.000000e+002	0.000000e+000	-2.000000e+002	0.000000e+000
95648530.000	-4.274986e-001	7.642456e+000	-5.358414e+001	1.249514e+002	-2.000000e+002	0.000000e+000	-2.000000e+002	0.000000e+000
96298520.000	-4.243007e-001	5.305079e+000	-5.348455e+001	1.231870e+002	-2.000000e+002	0.000000e+000	-2.000000e+002	0.000000e+000
96948510.000	-4.224940e-001	2.965449e+000	-5.350643e+001	1.216908e+002	-2.000000e+002	0.000000e+000	-2.000000e+002	0.000000e+000
97598500.000	-4.201854e-001	6.301207e-001	-5.346880e+001	1.205093e+002	-2.000000e+002	0.000000e+000	-2.000000e+002	0.000000e+000
98248490.000	-4.175532e-001	-1.704336e+000	-5.353764e+001	1.206147e+002	-2.000000e+002	0.000000e+000	-2.000000e+002	0.000000e+000
