!Keysight Technologies,E5063A,MY54503115,A.05.08
!Date: Tue Mar 05 14:43:03 2024
!Data & Calibration Information:
!Freq	S11:NONE(--)	S21:NONE(--)	S12:NONE(--)	S22:NONE(--)
# Hz S dB R 50
100000.000	4.624534e-002	-8.212220e-001	-8.170064e+001	1.039954e+002	-2.000000e+002	0.000000e+000	-2.000000e+002	0.000000e+000
749990.000	8.252637e-003	-3.064056e+000	-9.077803e+001	-8.195756e+001	-2.000000e+002	0.000000e+000	-2.000000e+002	0.000000e+000
1399980.000	9.578105e-003	-5.375038e+000	-9.334545e+001	1.060303e+002	-2.000000e+002	0.000000e+000	-2.000000e+002	0.000000e+000
2049970.000	9.732218e-003	-7.704327e+000	-7.935784e+001	1.229938e+002	-2.000000e+002	0.000000e+000	-2.000000e+002	0.000000e+000
2699960.000	9.499368e-003	-1.002416e+001	-7.786819e+001	1.042426e+002	-2.000000e+002	0.000000e+000	-2.000000e+002	0.000000e+000
3349950.000	1.353779e-002	-1.236172e+001	-7.655872e+001	9.875917e+001	-2.000000e+002	0.000000e+000	-2.000000e+002	0.000000e+000
3999940.000	1.316690e-002	-1.469637e+001	-7.460134e+001	6.374803e+001	-2.000000e+002	0.000000e+000	-2.000000e+002	0.000000e+000
4649930.000	1.506794e-002	-1.703742e+001	-7.407123e+001	7.916140e+001	-2.000000e+002	0.000000e+000	-2.000000e+002	0.000000e+000
5299920.000	1.361384e-002	-1.936993e+001	-7.263100e+001	7.974821e+001	-2.000000e+002	0.000000e+000	-2.000000e+002	0.000000e+000
5949910.000	1.364394e-002	-2.170977e+001	-7.178133e+001	7.361219e+001	-2.000000e+002	0.000000e+000	-2.000000e+002	0.000000e+000
6599900.000	1.336479e-002	-2.404860e+001	-7.126553e+001	7.265426e+001	-2.000000e+002	0.000000e+000	-2.000000e+002	0.000000e+000
7249890.000	1.404723e-002	-2.638828e+001	-7.047888e+001	7.167898e+001	-2.000000e+002	0.000000e+000	-2.000000e+002	0.000000e+000
7899880.000	1.251299e-002	-2.872805e+001	-7.020035e+001	7.448864e+001	-2.000000e+002	0.000000e+000	-2.000000e+002	0.000000e+000
8549870.000	1.768079e-002	-3.107901e+001	-6.853187e+001	6.129756e+001	-2.000000e+002	0.000000e+000	-2.000000e+002	0.000000e+000
9199860.000	1.666502e-002	-3.342029e+001	-6.803092e+001	5.966559e+001	-2.000000e+002	0.000000e+000	-2.000000e+002	0.000000e+000
9849850.000	1.581605e-002	-3.576519e+001	-6.734060e+001	5.830398e+001	-2.000000e+002	0.000000e+000	-2.000000e+002	0.000000e+000
10499840.000	1.324752e-002	-3.810943e+001	-6.658028e+001	5.552782e+001	-2.000000e+002	0.000000e+000	-2.000000e+002	0.000000e+000
11149830.000	1.008554e-002	-4.044880e+001	-6.615799e+001	5.288623e+001	-2.000000e+002	0.000000e+000	-2.000000e+002	0.000000e+000
11799820.000	8.713157e-003	-4.279320e+001	-6.536515e+001	5.024865e+001	-2.000000e+002	0.000000e+000	-2.000000e+002	0.000000e+000
12449810.000	8.725642e-003	-4.514530e+001	-6.496073e+001	4.787042e+001	-2.000000e+002	0.000000e+000	-2.000000e+002	0.000000e+000
13099800.000	1.065353e-002	-4.749271e+001	-6.451853e+001	4.576487e+001	-2.000000e+002	0.000000e+000	-2.000000e+002	0.000000e+000
13749790.000	7.665365e-003	-4.984090e+001	-6.409914e+001	4.334539e+001	-2.000000e+002	0.000000e+000	-2.000000e+002	0.000000e+000
14399780.000	5.316279e-003	-5.220158e+001	-6.363515e+001	4.089733e+001	-2.000000e+002	0.000000e+000	-2.000000e+002	0.000000e+000
15049770.000	4.941192e-003	-5.455460e+001	-6.318025e+001	3.837308e+001	-2.000000e+002	0.000000e+000	-2.000000e+002	0.000000e+000
15699760.000	4.254450e-003	-5.689998e+001	-6.278873e+001	3.582383e+001	-2.000000e+002	0.000000e+000	-2.000000e+002	0.000000e+000
16349750.000	2.931972e-003	-5.925438e+001	-6.243001e+001	3.352141e+001	-2.000000e+002	0.000000e+000	-2.000000e+002	0.000000e+000
16999740.000	6.747336e-004	-6.162587e+001	-6.206731e+001	3.130712e+001	-2.000000e+002	0.000000e+000	-2.000000e+002	0.000000e+000
17649730.000	4.631670e-003	-6.400185e+001	-6.162741e+001	2.825103e+001	-2.000000e+002	0.000000e+000	-2.000000e+002	0.000000e+000
18299720.000	5.899338e-003	-6.637893e+001	-6.141560e+001	2.573936e+001	-2.000000e+002	0.000000e+000	-2.000000e+002	0.000000e+000
18949710.000	2.501743e-003	-6.875229e+001	-6.104486e+001	2.414185e+001	-2.000000e+002	0.000000e+000	-2.000000e+002	0.000000e+000
19599700.000	-5.737190e-003	-7.112619e+001	-6.086160e+001	2.156271e+001	-2.000000e+002	0.000000e+000	-2.000000e+002	0.000000e+000
20249690.000	-1.210289e-002	-7.350330e+001	-6.046188e+001	1.907642e+001	-2.000000e+002	0.000000e+000	-2.000000e+002	0.000000e+000
20899680.000	-1.603176e-002	-7.590806e+001	-6.037317e+001	1.747709e+001	-2.000000e+002	0.000000e+000	-2.000000e+002	0.000000e+000
21549670.000	-2.058204e-002	-7.829711e+001	-6.006545e+001	1.583471e+001	-2.000000e+002	0.000000e+000	-2.000000e+002	0.000000e+000
22199660.000	-2.573258e-002	-8.067463e+001	-5.984872e+001	1.573917e+001	-2.000000e+002	0.000000e+000	-2.000000e+002	0.000000e+000
22849650.000	-3.036972e-002	-8.303403e+001	-5.931087e+001	1.629984e+001	-2.000000e+002	0.000000e+000	-2.000000e+002	0.000000e+000
23499640.000	-3.643208e-002	-8.541941e+001	-5.859385e+001	1.521972e+001	-2.000000e+002	0.000000e+000	-2.000000e+002	0.000000e+000
24149630.000	-4.287423e-002	-8.781423e+001	-5.789064e+001	1.171251e+001	-2.000000e+002	0.000000e+000	-2.000000e+002	0.000000e+000
24799620.000	-4.820093e-002	-9.020466e+001	-5.742192e+001	8.146295e+000	-2.000000e+002	0.000000e+000	-2.000000e+002	0.000000e+000
25449610.000	-5.258656e-002	-9.258970e+001	-5.703987e+001	5.841628e+000	-2.000000e+002	0.000000e+000	-2.000000e+002	0.000000e+000
26099600.000	-5.878408e-002	-9.498223e+001	-5.659028e+001	3.103988e+000	-2.000000e+002	0.000000e+000	-2.000000e+002	0.000000e+000
26749590.000	-6.492864e-002	-9.737930e+001	-5.603479e+001	-9.878950e-001	-2.000000e+002	0.000000e+000	-2.000000e+002	0.000000e+000
27399580.000	-7.122424e-002	-9.978299e+001	-5.575615e+001	-4.545961e+000	-2.000000e+002	0.000000e+000	-2.000000e+002	0.000000e+000
28049570.000	-7.689987e-002	-1.021838e+002	-5.555566e+001	-7.777940e+000	-2.000000e+002	0.000000e+000	-2.000000e+002	0.000000e+000
28699560.000	-8.378509e-002	-1.045875e+002	-5.536372e+001	-1.076639e+001	-2.000000e+002	0.000000e+000	-2.000000e+002	0.000000e+000
29349550.000	-9.033530e-002	-1.069952e+002	-5.535081e+001	-1.249678e+001	-2.000000e+002	0.000000e+000	-2.000000e+002	0.000000e+000
29999540.000	-9.743673e-002	-1.094091e+002	-5.502405e+001	-1.466159e+001	-2.000000e+002	0.000000e+000	-2.000000e+002	0.000000e+000
30649530.000	-1.048335e-001	-1.118306e+002	-5.477973e+001	-1.584198e+001	-2.000000e+002	0.000000e+000	-2.000000e+002	0.000000e+000
31299520.000	-1.121530e-001	-1.142496e+002	-5.442948e+001	-1.571549e+001	-2.000000e+002	0.000000e+000	-2.000000e+002	0.000000e+000
31949510.000	-1.203067e-001	-1.166717e+002	-5.385541e+001	-1.666198e+001	-2.000000e+002	0.000000e+000	-2.000000e+002	0.000000e+000
32599500.000	-1.284844e-001	-1.190974e+002	-5.319885e+001	-1.888095e+001	-2.000000e+002	0.000000e+000	-2.000000e+002	0.000000e+000
33249490.000	-1.367541e-001	-1.215222e+002	-5.264779e+001	-2.087866e+001	-2.000000e+002	0.000000e+000	-2.000000e+002	0.000000e+000
33899480.000	-1.450349e-001	-1.239496e+002	-5.195870e+001	-2.317234e+001	-2.000000e+002	0.000000e+000	-2.000000e+002	0.000000e+000
34549470.000	-1.534888e-001	-1.263793e+002	-5.143203e+001	-2.626126e+001	-2.000000e+002	0.000000e+000	-2.000000e+002	0.000000e+000
35199460.000	-1.621155e-001	-1.288210e+002	-5.097051e+001	-2.821449e+001	-2.000000e+002	0.000000e+000	-2.000000e+002	0.000000e+000
35849450.000	-1.714845e-001	-1.312623e+002	-5.031050e+001	-2.902971e+001	-2.000000e+002	0.000000e+000	-2.000000e+002	0.000000e+000
36499440.000	-1.811155e-001	-1.337019e+002	-4.934633e+001	-3.050593e+001	-2.000000e+002	0.000000e+000	-2.000000e+002	0.000000e+000
37149430.000	-1.905412e-001	-1.361470e+002	-4.831884e+001	-3.351629e+001	-2.000000e+002	0.000000e+000	-2.000000e+002	0.000000e+000
37799420.000	-1.997249e-001	-1.385987e+002	-4.730395e+001	-3.729788e+001	-2.000000e+002	0.000000e+000	-2.000000e+002	0.000000e+000
38449410.000	-2.089905e-001	-1.410520e+002	-4.621896e+001	-4.125603e+001	-2.000000e+002	0.000000e+000	-2.000000e+002	0.000000e+000
39099400.000	-2.176967e-001	-1.435167e+002	-4.509023e+001	-4.633728e+001	-2.000000e+002	0.000000e+000	-2.000000e+002	0.000000e+000
39749390.000	-2.267658e-001	-1.459966e+002	-4.402957e+001	-5.193580e+001	-2.000000e+002	0.000000e+000	-2.000000e+002	0.000000e+000
40399380.000	-2.368132e-001	-1.484962e+002	-4.293535e+001	-5.704785e+001	-2.000000e+002	0.000000e+000	-2.000000e+002	0.000000e+000
41049370.000	-2.497893e-001	-1.510190e+002	-4.162088e+001	-6.192066e+001	-2.000000e+002	0.000000e+000	-2.000000e+002	0.000000e+000
41699360.000	-2.658735e-001	-1.535685e+002	-3.993405e+001	-6.736351e+001	-2.000000e+002	0.000000e+000	-2.000000e+002	0.000000e+000
42349350.000	-2.892063e-001	-1.561703e+002	-3.773666e+001	-7.462955e+001	-2.000000e+002	0.000000e+000	-2.000000e+002	0.000000e+000
42999340.000	-3.312842e-001	-1.588596e+002	-3.485695e+001	-8.562544e+001	-2.000000e+002	0.000000e+000	-2.000000e+002	0.000000e+000
43649330.000	-4.394536e-001	-1.616334e+002	-3.100486e+001	-1.060460e+002	-2.000000e+002	0.000000e+000	-2.000000e+002	0.000000e+000
44299320.000	-6.858149e-001	-1.631075e+002	-2.746949e+001	-1.527950e+002	-2.000000e+002	0.000000e+000	-2.000000e+002	0.000000e+000
44949310.000	-5.067073e-001	-1.638383e+002	-3.031767e+001	1.528029e+002	-2.000000e+002	0.000000e+000	-2.000000e+002	0.000000e+000
45599300.000	-3.795723e-001	-1.665648e+002	-3.474632e+001	1.279458e+002	-2.000000e+002	0.000000e+000	-2.000000e+002	0.000000e+000
46249290.000	-3.473870e-001	-1.692930e+002	-3.813992e+001	1.138305e+002	-2.000000e+002	0.000000e+000	-2.000000e+002	0.000000e+000
46899280.000	-3.407563e-001	-1.719029e+002	-4.098070e+001	1.030158e+002	-2.000000e+002	0.000000e+000	-2.000000e+002	0.000000e+000
47549270.000	-3.409502e-001	-1.744450e+002	-4.350566e+001	9.440210e+001	-2.000000e+002	0.000000e+000	-2.000000e+002	0.000000e+000
48199260.000	-3.432386e-001	-1.769525e+002	-4.582783e+001	8.693539e+001	-2.000000e+002	0.000000e+000	-2.000000e+002	0.000000e+000
48849250.000	-3.463539e-001	-1.794396e+002	-4.805889e+001	8.033977e+001	-2.000000e+002	0.000000e+000	-2.000000e+002	0.000000e+000
49499240.000	-3.492860e-001	1.780802e+002	-5.027606e+001	7.530439e+001	-2.000000e+002	0.000000e+000	-2.000000e+002	0.000000e+000
50149230.000	-3.522821e-001	1.756001e+002	-5.226162e+001	7.152938e+001	-2.000000e+002	0.000000e+000	-2.000000e+002	0.000000e+000
50799220.000	-3.563882e-001	1.731238e+002	-5.397295e+001	6.864382e+001	-2.000000e+002	0.000000e+000	-2.000000e+002	0.000000e+000
51449210.000	-3.610881e-001	1.706464e+002	-5.562727e+001	6.434650e+001	-2.000000e+002	0.000000e+000	-2.000000e+002	0.000000e+000
52099200.000	-3.663435e-001	1.681751e+002	-5.732391e+001	5.927703e+001	-2.000000e+002	0.000000e+000	-2.000000e+002	0.000000e+000
52749190.000	-3.713777e-001	1.657088e+002	-5.899109e+001	5.479984e+001	-2.000000e+002	0.000000e+000	-2.000000e+002	0.000000e+000
53399180.000	-3.767270e-001	1.632443e+002	-6.062869e+001	4.888554e+001	-2.000000e+002	0.000000e+000	-2.000000e+002	0.000000e+000
54049170.000	-3.823139e-001	1.607816e+002	-6.232612e+001	4.329516e+001	-2.000000e+002	0.000000e+000	-2.000000e+002	0.000000e+000
54699160.000	-3.876797e-001	1.583210e+002	-6.370143e+001	3.505506e+001	-2.000000e+002	0.000000e+000	-2.000000e+002	0.000000e+000
55349150.000	-3.935774e-001	1.558641e+002	-6.501667e+001	2.535996e+001	-2.000000e+002	0.000000e+000	-2.000000e+002	0.000000e+000
55999140.000	-3.987745e-001	1.534101e+002	-6.593791e+001	1.144171e+001	-2.000000e+002	0.000000e+000	-2.000000e+002	0.000000e+000
56649130.000	-4.043560e-001	1.509592e+002	-6.710226e+001	-5.616020e+000	-2.000000e+002	0.000000e+000	-2.000000e+002	0.000000e+000
57299120.000	-4.092399e-001	1.485091e+002	-6.776254e+001	-2.321832e+001	-2.000000e+002	0.000000e+000	-2.000000e+002	0.000000e+000
57949110.000	-4.143626e-001	1.460618e+002	-6.755600e+001	-3.876963e+001	-2.000000e+002	0.000000e+000	-2.000000e+002	0.000000e+000
58599100.000	-4.190834e-001	1.436114e+002	-6.717399e+001	-5.517765e+001	-2.000000e+002	0.000000e+000	-2.000000e+002	0.000000e+000
59249090.000	-4.239249e-001	1.411699e+002	-6.661260e+001	-6.682459e+001	-2.000000e+002	0.000000e+000	-2.000000e+002	0.000000e+000
59899080.000	-4.288158e-001	1.387276e+002	-6.601855e+001	-7.576178e+001	-2.000000e+002	0.000000e+000	-2.000000e+002	0.000000e+000
60549070.000	-4.334590e-001	1.362888e+002	-6.514998e+001	-8.097860e+001	-2.000000e+002	0.000000e+000	-2.000000e+002	0.000000e+000
61199060.000	-4.382607e-001	1.338546e+002	-6.401521e+001	-8.587832e+001	-2.000000e+002	0.000000e+000	-2.000000e+002	0.000000e+000
61849050.000	-4.428706e-001	1.314235e+002	-6.298616e+001	-9.183278e+001	-2.000000e+002	0.000000e+000	-2.000000e+002	0.000000e+000
62499040.000	-4.471775e-001	1.289955e+002	-6.155677e+001	-9.828665e+001	-2.000000e+002	0.000000e+000	-2.000000e+002	0.000000e+000
63149030.000	-4.504033e-001	1.265686e+002	-6.054798e+001	-1.058204e+002	-2.000000e+002	0.000000e+000	-2.000000e+002	0.000000e+000
63799020.000	-4.539088e-001	1.241435e+002	-5.996667e+001	-1.143738e+002	-2.000000e+002	0.000000e+000	-2.000000e+002	0.000000e+000
64449010.000	-4.573203e-001	1.217214e+002	-5.952182e+001	-1.208928e+002	-2.000000e+002	0.000000e+000	-2.000000e+002	0.000000e+000
65099000.000	-4.593397e-001	1.192971e+002	-5.920877e+001	-1.264857e+002	-2.000000e+002	0.000000e+000	-2.000000e+002	0.000000e+000
65748990.000	-4.617590e-001	1.168700e+002	-5.895838e+001	-1.320006e+002	-2.000000e+002	0.000000e+000	-2.000000e+002	0.000000e+000
66398980.000	-4.644093e-001	1.144499e+002	-5.881012e+001	-1.369280e+002	-2.000000e+002	0.000000e+000	-2.000000e+002	0.000000e+000
67048970.000	-4.666540e-001	1.120289e+002	-5.861463e+001	-1.403175e+002	-2.000000e+002	0.000000e+000	-2.000000e+002	0.000000e+000
67698960.000	-4.693986e-001	1.096139e+002	-5.848174e+001	-1.441608e+002	-2.000000e+002	0.000000e+000	-2.000000e+002	0.000000e+000
68348950.000	-4.707030e-001	1.071986e+002	-5.837817e+001	-1.475747e+002	-2.000000e+002	0.000000e+000	-2.000000e+002	0.000000e+000
68998940.000	-4.733414e-001	1.047870e+002	-5.820606e+001	-1.511400e+002	-2.000000e+002	0.000000e+000	-2.000000e+002	0.000000e+000
69648930.000	-4.745509e-001	1.023716e+002	-5.812019e+001	-1.541204e+002	-2.000000e+002	0.000000e+000	-2.000000e+002	0.000000e+000
70298920.000	-4.751851e-001	9.995392e+001	-5.811170e+001	-1.563483e+002	-2.000000e+002	0.000000e+000	-2.000000e+002	0.000000e+000
70948910.000	-4.777205e-001	9.754634e+001	-5.795323e+001	-1.583890e+002	-2.000000e+002	0.000000e+000	-2.000000e+002	0.000000e+000
71598900.000	-4.784351e-001	9.513833e+001	-5.780220e+001	-1.600719e+002	-2.000000e+002	0.000000e+000	-2.000000e+002	0.000000e+000
72248890.000	-4.805920e-001	9.273767e+001	-5.757641e+001	-1.622570e+002	-2.000000e+002	0.000000e+000	-2.000000e+002	0.000000e+000
72898880.000	-4.813541e-001	9.033520e+001	-5.730585e+001	-1.644406e+002	-2.000000e+002	0.000000e+000	-2.000000e+002	0.000000e+000
73548870.000	-4.824738e-001	8.794278e+001	-5.708729e+001	-1.668691e+002	-2.000000e+002	0.000000e+000	-2.000000e+002	0.000000e+000
74198860.000	-4.830937e-001	8.554748e+001	-5.688702e+001	-1.698186e+002	-2.000000e+002	0.000000e+000	-2.000000e+002	0.000000e+000
74848850.000	-4.839526e-001	8.315506e+001	-5.671100e+001	-1.728774e+002	-2.000000e+002	0.000000e+000	-2.000000e+002	0.000000e+000
75498840.000	-4.837853e-001	8.076206e+001	-5.653218e+001	-1.761150e+002	-2.000000e+002	0.000000e+000	-2.000000e+002	0.000000e+000
76148830.000	-4.840515e-001	7.837228e+001	-5.652237e+001	-1.788527e+002	-2.000000e+002	0.000000e+000	-2.000000e+002	0.000000e+000
76798820.000	-4.832182e-001	7.598141e+001	-5.648284e+001	1.788779e+002	-2.000000e+002	0.000000e+000	-2.000000e+002	0.000000e+000
77448810.000	-4.846844e-001	7.361074e+001	-5.641226e+001	1.767806e+002	-2.000000e+002	0.000000e+000	-2.000000e+002	0.000000e+000
78098800.000	-4.849419e-001	7.122727e+001	-5.641700e+001	1.751775e+002	-2.000000e+002	0.000000e+000	-2.000000e+002	0.000000e+000
78748790.000	-4.845812e-001	6.884655e+001	-5.633879e+001	1.732729e+002	-2.000000e+002	0.000000e+000	-2.000000e+002	0.000000e+000
79398780.000	-4.834642e-001	6.647268e+001	-5.619137e+001	1.714768e+002	-2.000000e+002	0.000000e+000	-2.000000e+002	0.000000e+000
80048770.000	-4.817312e-001	6.408596e+001	-5.605045e+001	1.696917e+002	-2.000000e+002	0.000000e+000	-2.000000e+002	0.000000e+000
80698760.000	-4.808097e-001	6.171431e+001	-5.587881e+001	1.676842e+002	-2.000000e+002	0.000000e+000	-2.000000e+002	0.000000e+000
81348750.000	-4.793714e-001	5.934011e+001	-5.579821e+001	1.657340e+002	-2.000000e+002	0.000000e+000	-2.000000e+002	0.000000e+000
81998740.000	-4.772698e-001	5.697267e+001	-5.572583e+001	1.634661e+002	-2.000000e+002	0.000000e+000	-2.000000e+002	0.000000e+000
82648730.000	-4.776799e-001	5.461591e+001	-5.558725e+001	1.618141e+002	-2.000000e+002	0.000000e+000	-2.000000e+002	0.000000e+000
83298720.000	-4.761323e-001	5.224946e+001	-5.547056e+001	1.598275e+002	-2.000000e+002	0.000000e+000	-2.000000e+002	0.000000e+000
83948710.000	-4.745737e-001	4.987852e+001	-5.541549e+001	1.576717e+002	-2.000000e+002	0.000000e+000	-2.000000e+002	0.000000e+000
84598700.000	-4.726195e-001	4.751423e+001	-5.532658e+001	1.559662e+002	-2.000000e+002	0.000000e+000	-2.000000e+002	0.000000e+000
85248690.000	-4.708503e-001	4.514785e+001	-5.519582e+001	1.533161e+002	-2.000000e+002	0.000000e+000	-2.000000e+002	0.000000e+000
85898680.000	-4.689272e-001	4.279002e+001	-5.509675e+001	1.522739e+002	-2.000000e+002	0.000000e+000	-2.000000e+002	0.000000e+000
86548670.000	-4.671686e-001	4.042921e+001	-5.500772e+001	1.504880e+002	-2.000000e+002	0.000000e+000	-2.000000e+002	0.000000e+000
87198660.000	-4.639575e-001	3.807281e+001	-5.484186e+001	1.488019e+002	-2.000000e+002	0.000000e+000	-2.000000e+002	0.000000e+000
87848650.000	-4.618850e-001	3.572367e+001	-5.473757e+001	1.465972e+002	-2.000000e+002	0.000000e+000	-2.000000e+002	0.000000e+000
88498640.000	-4.595431e-001	3.337034e+001	-5.464954e+001	1.455335e+002	-2.000000e+002	0.000000e+000	-2.000000e+002	0.000000e+000
89148630.000	-4.580680e-001	3.102187e+001	-5.445009e+001	1.437647e+002	-2.000000e+002	0.000000e+000	-2.000000e+002	0.000000e+000
89798620.000	-4.552005e-001	2.867155e+001	-5.435761e+001	1.423718e+002	-2.000000e+002	0.000000e+000	-2.000000e+002	0.000000e+000
90448610.000	-4.530178e-001	2.632093e+001	-5.410591e+001	1.404109e+002	-2.000000e+002	0.000000e+000	-2.000000e+002	0.000000e+000
91098600.000	-4.509401e-001	2.397406e+001	-5.392989e+001	1.381220e+002	-2.000000e+002	0.000000e+000	-2.000000e+002	0.000000e+000
91748590.000	-4.479793e-001	2.162624e+001	-5.371843e+001	1.354899e+002	-2.000000e+002	0.000000e+000	-2.000000e+002	0.000000e+000
92398580.000	-4.448071e-001	1.927921e+001	-5.363487e+001	1.331327e+002	-2.000000e+002	0.000000e+000	-2.000000e+002	0.000000e+000
93048570.000	-4.421035e-001	1.693120e+001	-5.358666e+001	1.314203e+002	-2.000000e+002	0.000000e+000	-2.000000e+002	0.000000e+000
93698560.000	-4.389063e-001	1.458502e+001	-5.356539e+001	1.287474e+002	-2.000000e+002	0.000000e+000	-2.000000e+002	0.000000e+000
94348550.000	-4.361181e-001	1.223901e+001	-5.354032e+001	1.268268e+002	-2.000000e+002	0.000000e+000	-2.000000e+002	0.000000e+000
94998540.000	-4.338028e-001	9.893311e+000	-5.342415e+001	1.253334e+002	-2.000000e+002	0.000000e+000	-2.000000e+002	0.000000e+000
95648530.000	-4.307564e-001	7.555723e+000	-5.347046e+001	1.240908e+002	-2.000000e+002	0.000000e+000	-2.000000e+002	0.000000e+000
96298520.000	-4.281804e-001	5.214023e+000	-5.341213e+001	1.224907e+002	-2.000000e+002	0.000000e+000	-2.000000e+002	0.000000e+000
96948510.000	-4.257410e-001	2.876157e+000	-5.339693e+001	1.212200e+002	-2.000000e+002	0.000000e+000	-2.000000e+002	0.000000e+000
97598500.000	-4.237753e-001	5.373065e-001	-5.337685e+001	1.201290e+002	-2.000000e+002	0.000000e+000	-2.000000e+002	0.000000e+000
98248490.000	-4.209316e-001	-1.800033e+000	-5.329059e+001	1.197171e+002	-2.000000e+002	0.000000e+000	-2.000000e+002	0.000000e+000
