!Keysight Technologies,E5063A,MY54503115,A.05.08
!Date: Tue Mar 05 14:54:36 2024
!Data & Calibration Information:
!Freq	S11:NONE(--)	S21:NONE(--)	S12:NONE(--)	S22:NONE(--)
# Hz S dB R 50
100000.000	4.622424e-002	-8.274069e-001	-8.444085e+001	-2.116152e+001	-2.000000e+002	0.000000e+000	-2.000000e+002	0.000000e+000
749990.000	7.488289e-003	-3.064196e+000	-9.327389e+001	-1.757174e+002	-2.000000e+002	0.000000e+000	-2.000000e+002	0.000000e+000
1399980.000	9.911067e-003	-5.380294e+000	-8.267057e+001	1.314019e+002	-2.000000e+002	0.000000e+000	-2.000000e+002	0.000000e+000
2049970.000	8.777182e-003	-7.701376e+000	-7.765149e+001	1.335332e+002	-2.000000e+002	0.000000e+000	-2.000000e+002	0.000000e+000
2699960.000	9.642061e-003	-1.002650e+001	-7.751794e+001	8.020109e+001	-2.000000e+002	0.000000e+000	-2.000000e+002	0.000000e+000
3349950.000	1.444599e-002	-1.236562e+001	-7.752517e+001	7.606917e+001	-2.000000e+002	0.000000e+000	-2.000000e+002	0.000000e+000
3999940.000	1.242156e-002	-1.469839e+001	-7.540182e+001	8.335247e+001	-2.000000e+002	0.000000e+000	-2.000000e+002	0.000000e+000
4649930.000	1.549852e-002	-1.703491e+001	-7.259167e+001	7.007185e+001	-2.000000e+002	0.000000e+000	-2.000000e+002	0.000000e+000
5299920.000	1.284248e-002	-1.937066e+001	-7.365983e+001	7.328870e+001	-2.000000e+002	0.000000e+000	-2.000000e+002	0.000000e+000
5949910.000	1.282570e-002	-2.171083e+001	-7.206338e+001	7.070064e+001	-2.000000e+002	0.000000e+000	-2.000000e+002	0.000000e+000
6599900.000	1.256159e-002	-2.404633e+001	-7.120250e+001	7.045624e+001	-2.000000e+002	0.000000e+000	-2.000000e+002	0.000000e+000
7249890.000	1.315659e-002	-2.638524e+001	-7.053178e+001	6.561524e+001	-2.000000e+002	0.000000e+000	-2.000000e+002	0.000000e+000
7899880.000	1.283112e-002	-2.873637e+001	-7.025389e+001	6.805689e+001	-2.000000e+002	0.000000e+000	-2.000000e+002	0.000000e+000
8549870.000	1.735788e-002	-3.108151e+001	-6.844091e+001	6.171553e+001	-2.000000e+002	0.000000e+000	-2.000000e+002	0.000000e+000
9199860.000	1.616884e-002	-3.342420e+001	-6.773027e+001	6.021939e+001	-2.000000e+002	0.000000e+000	-2.000000e+002	0.000000e+000
9849850.000	1.546669e-002	-3.576776e+001	-6.713111e+001	5.712561e+001	-2.000000e+002	0.000000e+000	-2.000000e+002	0.000000e+000
10499840.000	1.256713e-002	-3.810967e+001	-6.657994e+001	5.537889e+001	-2.000000e+002	0.000000e+000	-2.000000e+002	0.000000e+000
11149830.000	9.842947e-003	-4.045310e+001	-6.599881e+001	5.344184e+001	-2.000000e+002	0.000000e+000	-2.000000e+002	0.000000e+000
11799820.000	8.526514e-003	-4.279653e+001	-6.552908e+001	5.025225e+001	-2.000000e+002	0.000000e+000	-2.000000e+002	0.000000e+000
12449810.000	8.429378e-003	-4.514892e+001	-6.501432e+001	4.758257e+001	-2.000000e+002	0.000000e+000	-2.000000e+002	0.000000e+000
13099800.000	9.757812e-003	-4.749853e+001	-6.456149e+001	4.529106e+001	-2.000000e+002	0.000000e+000	-2.000000e+002	0.000000e+000
13749790.000	7.023295e-003	-4.984401e+001	-6.413595e+001	4.297725e+001	-2.000000e+002	0.000000e+000	-2.000000e+002	0.000000e+000
14399780.000	4.184742e-003	-5.220220e+001	-6.373126e+001	4.052938e+001	-2.000000e+002	0.000000e+000	-2.000000e+002	0.000000e+000
15049770.000	4.299777e-003	-5.456080e+001	-6.326338e+001	3.767226e+001	-2.000000e+002	0.000000e+000	-2.000000e+002	0.000000e+000
15699760.000	3.409196e-003	-5.690409e+001	-6.282734e+001	3.585204e+001	-2.000000e+002	0.000000e+000	-2.000000e+002	0.000000e+000
16349750.000	2.061815e-003	-5.926018e+001	-6.240983e+001	3.401555e+001	-2.000000e+002	0.000000e+000	-2.000000e+002	0.000000e+000
16999740.000	-6.071653e-005	-6.163091e+001	-6.211227e+001	3.045334e+001	-2.000000e+002	0.000000e+000	-2.000000e+002	0.000000e+000
17649730.000	4.553259e-003	-6.400598e+001	-6.163578e+001	2.829290e+001	-2.000000e+002	0.000000e+000	-2.000000e+002	0.000000e+000
18299720.000	4.932907e-003	-6.638310e+001	-6.136462e+001	2.582545e+001	-2.000000e+002	0.000000e+000	-2.000000e+002	0.000000e+000
18949710.000	1.770029e-003	-6.875676e+001	-6.102632e+001	2.365536e+001	-2.000000e+002	0.000000e+000	-2.000000e+002	0.000000e+000
19599700.000	-6.517069e-003	-7.112911e+001	-6.071169e+001	2.105775e+001	-2.000000e+002	0.000000e+000	-2.000000e+002	0.000000e+000
20249690.000	-1.328821e-002	-7.350851e+001	-6.039547e+001	1.888696e+001	-2.000000e+002	0.000000e+000	-2.000000e+002	0.000000e+000
20899680.000	-1.729917e-002	-7.591342e+001	-6.013633e+001	1.760352e+001	-2.000000e+002	0.000000e+000	-2.000000e+002	0.000000e+000
21549670.000	-2.153859e-002	-7.830478e+001	-5.999110e+001	1.590390e+001	-2.000000e+002	0.000000e+000	-2.000000e+002	0.000000e+000
22199660.000	-2.653325e-002	-8.068080e+001	-5.969838e+001	1.453915e+001	-2.000000e+002	0.000000e+000	-2.000000e+002	0.000000e+000
22849650.000	-3.124222e-002	-8.304090e+001	-5.937554e+001	1.453714e+001	-2.000000e+002	0.000000e+000	-2.000000e+002	0.000000e+000
23499640.000	-3.774213e-002	-8.543015e+001	-5.879785e+001	1.421716e+001	-2.000000e+002	0.000000e+000	-2.000000e+002	0.000000e+000
24149630.000	-4.422147e-002	-8.782408e+001	-5.806443e+001	1.198900e+001	-2.000000e+002	0.000000e+000	-2.000000e+002	0.000000e+000
24799620.000	-4.991032e-002	-9.021083e+001	-5.751323e+001	8.776876e+000	-2.000000e+002	0.000000e+000	-2.000000e+002	0.000000e+000
25449610.000	-5.395095e-002	-9.259938e+001	-5.710301e+001	5.875048e+000	-2.000000e+002	0.000000e+000	-2.000000e+002	0.000000e+000
26099600.000	-6.044318e-002	-9.499157e+001	-5.660467e+001	3.064493e+000	-2.000000e+002	0.000000e+000	-2.000000e+002	0.000000e+000
26749590.000	-6.683720e-002	-9.738721e+001	-5.614561e+001	-4.843400e-001	-2.000000e+002	0.000000e+000	-2.000000e+002	0.000000e+000
27399580.000	-7.283381e-002	-9.979004e+001	-5.576868e+001	-4.470404e+000	-2.000000e+002	0.000000e+000	-2.000000e+002	0.000000e+000
28049570.000	-7.856704e-002	-1.021928e+002	-5.562237e+001	-7.528506e+000	-2.000000e+002	0.000000e+000	-2.000000e+002	0.000000e+000
28699560.000	-8.548415e-002	-1.045969e+002	-5.542277e+001	-1.053340e+001	-2.000000e+002	0.000000e+000	-2.000000e+002	0.000000e+000
29349550.000	-9.253444e-002	-1.070077e+002	-5.526949e+001	-1.276812e+001	-2.000000e+002	0.000000e+000	-2.000000e+002	0.000000e+000
29999540.000	-9.952806e-002	-1.094201e+002	-5.501256e+001	-1.448242e+001	-2.000000e+002	0.000000e+000	-2.000000e+002	0.000000e+000
30649530.000	-1.070776e-001	-1.118395e+002	-5.481734e+001	-1.549732e+001	-2.000000e+002	0.000000e+000	-2.000000e+002	0.000000e+000
31299520.000	-1.142533e-001	-1.142619e+002	-5.442007e+001	-1.600828e+001	-2.000000e+002	0.000000e+000	-2.000000e+002	0.000000e+000
31949510.000	-1.222393e-001	-1.166832e+002	-5.383602e+001	-1.670496e+001	-2.000000e+002	0.000000e+000	-2.000000e+002	0.000000e+000
32599500.000	-1.307229e-001	-1.191084e+002	-5.317881e+001	-1.869235e+001	-2.000000e+002	0.000000e+000	-2.000000e+002	0.000000e+000
33249490.000	-1.390781e-001	-1.215337e+002	-5.262541e+001	-2.043471e+001	-2.000000e+002	0.000000e+000	-2.000000e+002	0.000000e+000
33899480.000	-1.473311e-001	-1.239612e+002	-5.195049e+001	-2.284480e+001	-2.000000e+002	0.000000e+000	-2.000000e+002	0.000000e+000
34549470.000	-1.557299e-001	-1.263921e+002	-5.140532e+001	-2.598185e+001	-2.000000e+002	0.000000e+000	-2.000000e+002	0.000000e+000
35199460.000	-1.645883e-001	-1.288323e+002	-5.095675e+001	-2.776729e+001	-2.000000e+002	0.000000e+000	-2.000000e+002	0.000000e+000
35849450.000	-1.740036e-001	-1.312748e+002	-5.028246e+001	-2.872053e+001	-2.000000e+002	0.000000e+000	-2.000000e+002	0.000000e+000
36499440.000	-1.834056e-001	-1.337164e+002	-4.928078e+001	-2.995243e+001	-2.000000e+002	0.000000e+000	-2.000000e+002	0.000000e+000
37149430.000	-1.929751e-001	-1.361624e+002	-4.824908e+001	-3.304119e+001	-2.000000e+002	0.000000e+000	-2.000000e+002	0.000000e+000
37799420.000	-2.023161e-001	-1.386145e+002	-4.720733e+001	-3.661933e+001	-2.000000e+002	0.000000e+000	-2.000000e+002	0.000000e+000
38449410.000	-2.115644e-001	-1.410675e+002	-4.607300e+001	-4.066983e+001	-2.000000e+002	0.000000e+000	-2.000000e+002	0.000000e+000
39099400.000	-2.203340e-001	-1.435336e+002	-4.491472e+001	-4.604847e+001	-2.000000e+002	0.000000e+000	-2.000000e+002	0.000000e+000
39749390.000	-2.290861e-001	-1.460142e+002	-4.383439e+001	-5.179073e+001	-2.000000e+002	0.000000e+000	-2.000000e+002	0.000000e+000
40399380.000	-2.391253e-001	-1.485174e+002	-4.270825e+001	-5.724980e+001	-2.000000e+002	0.000000e+000	-2.000000e+002	0.000000e+000
41049370.000	-2.519059e-001	-1.510435e+002	-4.135560e+001	-6.222255e+001	-2.000000e+002	0.000000e+000	-2.000000e+002	0.000000e+000
41699360.000	-2.678631e-001	-1.536046e+002	-3.960391e+001	-6.796426e+001	-2.000000e+002	0.000000e+000	-2.000000e+002	0.000000e+000
42349350.000	-2.910959e-001	-1.562283e+002	-3.733876e+001	-7.567464e+001	-2.000000e+002	0.000000e+000	-2.000000e+002	0.000000e+000
42999340.000	-3.373445e-001	-1.589729e+002	-3.433420e+001	-8.750928e+001	-2.000000e+002	0.000000e+000	-2.000000e+002	0.000000e+000
43649330.000	-4.758642e-001	-1.618037e+002	-3.026395e+001	-1.105176e+002	-2.000000e+002	0.000000e+000	-2.000000e+002	0.000000e+000
44299320.000	-7.251621e-001	-1.626310e+002	-2.742937e+001	-1.639120e+002	-2.000000e+002	0.000000e+000	-2.000000e+002	0.000000e+000
44949310.000	-4.805420e-001	-1.637732e+002	-3.132626e+001	1.474720e+002	-2.000000e+002	0.000000e+000	-2.000000e+002	0.000000e+000
45599300.000	-3.717903e-001	-1.665704e+002	-3.554094e+001	1.267502e+002	-2.000000e+002	0.000000e+000	-2.000000e+002	0.000000e+000
46249290.000	-3.428283e-001	-1.692998e+002	-3.864656e+001	1.140009e+002	-2.000000e+002	0.000000e+000	-2.000000e+002	0.000000e+000
46899280.000	-3.372559e-001	-1.719234e+002	-4.125601e+001	1.031017e+002	-2.000000e+002	0.000000e+000	-2.000000e+002	0.000000e+000
47549270.000	-3.398133e-001	-1.744739e+002	-4.370214e+001	9.354619e+001	-2.000000e+002	0.000000e+000	-2.000000e+002	0.000000e+000
48199260.000	-3.437543e-001	-1.769826e+002	-4.606601e+001	8.553989e+001	-2.000000e+002	0.000000e+000	-2.000000e+002	0.000000e+000
48849250.000	-3.479070e-001	-1.794672e+002	-4.838678e+001	7.890678e+001	-2.000000e+002	0.000000e+000	-2.000000e+002	0.000000e+000
49499240.000	-3.515766e-001	1.780555e+002	-5.071877e+001	7.408654e+001	-2.000000e+002	0.000000e+000	-2.000000e+002	0.000000e+000
50149230.000	-3.548660e-001	1.755764e+002	-5.271876e+001	7.125141e+001	-2.000000e+002	0.000000e+000	-2.000000e+002	0.000000e+000
50799220.000	-3.592463e-001	1.731003e+002	-5.447480e+001	6.794152e+001	-2.000000e+002	0.000000e+000	-2.000000e+002	0.000000e+000
51449210.000	-3.640767e-001	1.706218e+002	-5.611994e+001	6.424763e+001	-2.000000e+002	0.000000e+000	-2.000000e+002	0.000000e+000
52099200.000	-3.694057e-001	1.681527e+002	-5.783624e+001	5.982148e+001	-2.000000e+002	0.000000e+000	-2.000000e+002	0.000000e+000
52749190.000	-3.746270e-001	1.656877e+002	-5.946605e+001	5.517278e+001	-2.000000e+002	0.000000e+000	-2.000000e+002	0.000000e+000
53399180.000	-3.797534e-001	1.632218e+002	-6.113244e+001	5.074853e+001	-2.000000e+002	0.000000e+000	-2.000000e+002	0.000000e+000
54049170.000	-3.855286e-001	1.607605e+002	-6.262146e+001	4.443539e+001	-2.000000e+002	0.000000e+000	-2.000000e+002	0.000000e+000
54699160.000	-3.911395e-001	1.583004e+002	-6.409245e+001	3.810029e+001	-2.000000e+002	0.000000e+000	-2.000000e+002	0.000000e+000
55349150.000	-3.966445e-001	1.558444e+002	-6.535104e+001	2.747406e+001	-2.000000e+002	0.000000e+000	-2.000000e+002	0.000000e+000
55999140.000	-4.023094e-001	1.533910e+002	-6.651239e+001	1.470402e+001	-2.000000e+002	0.000000e+000	-2.000000e+002	0.000000e+000
56649130.000	-4.077584e-001	1.509387e+002	-6.748289e+001	-2.372918e+000	-2.000000e+002	0.000000e+000	-2.000000e+002	0.000000e+000
57299120.000	-4.129250e-001	1.484896e+002	-6.790092e+001	-1.849409e+001	-2.000000e+002	0.000000e+000	-2.000000e+002	0.000000e+000
57949110.000	-4.179237e-001	1.460411e+002	-6.776037e+001	-3.621251e+001	-2.000000e+002	0.000000e+000	-2.000000e+002	0.000000e+000
58599100.000	-4.225811e-001	1.435929e+002	-6.728060e+001	-5.071081e+001	-2.000000e+002	0.000000e+000	-2.000000e+002	0.000000e+000
59249090.000	-4.276576e-001	1.411505e+002	-6.675848e+001	-6.344759e+001	-2.000000e+002	0.000000e+000	-2.000000e+002	0.000000e+000
59899080.000	-4.321012e-001	1.387070e+002	-6.608601e+001	-7.391837e+001	-2.000000e+002	0.000000e+000	-2.000000e+002	0.000000e+000
60549070.000	-4.368034e-001	1.362707e+002	-6.530226e+001	-8.011923e+001	-2.000000e+002	0.000000e+000	-2.000000e+002	0.000000e+000
61199060.000	-4.418792e-001	1.338371e+002	-6.410319e+001	-8.476405e+001	-2.000000e+002	0.000000e+000	-2.000000e+002	0.000000e+000
61849050.000	-4.462270e-001	1.314047e+002	-6.281761e+001	-9.019519e+001	-2.000000e+002	0.000000e+000	-2.000000e+002	0.000000e+000
62499040.000	-4.507464e-001	1.289760e+002	-6.165700e+001	-9.666426e+001	-2.000000e+002	0.000000e+000	-2.000000e+002	0.000000e+000
63149030.000	-4.543553e-001	1.265515e+002	-6.054090e+001	-1.041499e+002	-2.000000e+002	0.000000e+000	-2.000000e+002	0.000000e+000
63799020.000	-4.575850e-001	1.241249e+002	-5.985374e+001	-1.120094e+002	-2.000000e+002	0.000000e+000	-2.000000e+002	0.000000e+000
64449010.000	-4.605518e-001	1.217043e+002	-5.937171e+001	-1.193243e+002	-2.000000e+002	0.000000e+000	-2.000000e+002	0.000000e+000
65099000.000	-4.629508e-001	1.192772e+002	-5.911494e+001	-1.256999e+002	-2.000000e+002	0.000000e+000	-2.000000e+002	0.000000e+000
65748990.000	-4.649917e-001	1.168541e+002	-5.883764e+001	-1.310446e+002	-2.000000e+002	0.000000e+000	-2.000000e+002	0.000000e+000
66398980.000	-4.679783e-001	1.144335e+002	-5.870041e+001	-1.359138e+002	-2.000000e+002	0.000000e+000	-2.000000e+002	0.000000e+000
67048970.000	-4.699701e-001	1.120125e+002	-5.852280e+001	-1.396268e+002	-2.000000e+002	0.000000e+000	-2.000000e+002	0.000000e+000
67698960.000	-4.724064e-001	1.095992e+002	-5.837784e+001	-1.433943e+002	-2.000000e+002	0.000000e+000	-2.000000e+002	0.000000e+000
68348950.000	-4.740063e-001	1.071840e+002	-5.816693e+001	-1.474580e+002	-2.000000e+002	0.000000e+000	-2.000000e+002	0.000000e+000
68998940.000	-4.764486e-001	1.047714e+002	-5.811793e+001	-1.505727e+002	-2.000000e+002	0.000000e+000	-2.000000e+002	0.000000e+000
69648930.000	-4.776758e-001	1.023573e+002	-5.802110e+001	-1.530804e+002	-2.000000e+002	0.000000e+000	-2.000000e+002	0.000000e+000
70298920.000	-4.785965e-001	9.993829e+001	-5.789811e+001	-1.561851e+002	-2.000000e+002	0.000000e+000	-2.000000e+002	0.000000e+000
70948910.000	-4.806781e-001	9.753026e+001	-5.781079e+001	-1.580802e+002	-2.000000e+002	0.000000e+000	-2.000000e+002	0.000000e+000
71598900.000	-4.815423e-001	9.512314e+001	-5.773297e+001	-1.600033e+002	-2.000000e+002	0.000000e+000	-2.000000e+002	0.000000e+000
72248890.000	-4.830478e-001	9.272336e+001	-5.750784e+001	-1.621491e+002	-2.000000e+002	0.000000e+000	-2.000000e+002	0.000000e+000
72898880.000	-4.837858e-001	9.032433e+001	-5.719872e+001	-1.645540e+002	-2.000000e+002	0.000000e+000	-2.000000e+002	0.000000e+000
73548870.000	-4.854178e-001	8.792857e+001	-5.699016e+001	-1.672266e+002	-2.000000e+002	0.000000e+000	-2.000000e+002	0.000000e+000
74198860.000	-4.857758e-001	8.553242e+001	-5.681058e+001	-1.700247e+002	-2.000000e+002	0.000000e+000	-2.000000e+002	0.000000e+000
74848850.000	-4.864918e-001	8.314136e+001	-5.662199e+001	-1.725498e+002	-2.000000e+002	0.000000e+000	-2.000000e+002	0.000000e+000
75498840.000	-4.862507e-001	8.074964e+001	-5.650684e+001	-1.758562e+002	-2.000000e+002	0.000000e+000	-2.000000e+002	0.000000e+000
76148830.000	-4.865317e-001	7.835925e+001	-5.643925e+001	-1.787608e+002	-2.000000e+002	0.000000e+000	-2.000000e+002	0.000000e+000
76798820.000	-4.854053e-001	7.596843e+001	-5.647140e+001	1.789816e+002	-2.000000e+002	0.000000e+000	-2.000000e+002	0.000000e+000
77448810.000	-4.869594e-001	7.359578e+001	-5.640167e+001	1.769950e+002	-2.000000e+002	0.000000e+000	-2.000000e+002	0.000000e+000
78098800.000	-4.871228e-001	7.121298e+001	-5.637935e+001	1.751974e+002	-2.000000e+002	0.000000e+000	-2.000000e+002	0.000000e+000
78748790.000	-4.866375e-001	6.883650e+001	-5.624643e+001	1.734142e+002	-2.000000e+002	0.000000e+000	-2.000000e+002	0.000000e+000
79398780.000	-4.854687e-001	6.646170e+001	-5.611687e+001	1.715581e+002	-2.000000e+002	0.000000e+000	-2.000000e+002	0.000000e+000
80048770.000	-4.836772e-001	6.407623e+001	-5.601213e+001	1.695482e+002	-2.000000e+002	0.000000e+000	-2.000000e+002	0.000000e+000
80698760.000	-4.824797e-001	6.170133e+001	-5.586121e+001	1.674908e+002	-2.000000e+002	0.000000e+000	-2.000000e+002	0.000000e+000
81348750.000	-4.808695e-001	5.933096e+001	-5.579849e+001	1.652493e+002	-2.000000e+002	0.000000e+000	-2.000000e+002	0.000000e+000
81998740.000	-4.793351e-001	5.696014e+001	-5.563955e+001	1.634166e+002	-2.000000e+002	0.000000e+000	-2.000000e+002	0.000000e+000
82648730.000	-4.791261e-001	5.460398e+001	-5.560777e+001	1.613835e+002	-2.000000e+002	0.000000e+000	-2.000000e+002	0.000000e+000
83298720.000	-4.780975e-001	5.223980e+001	-5.549793e+001	1.597454e+002	-2.000000e+002	0.000000e+000	-2.000000e+002	0.000000e+000
83948710.000	-4.759274e-001	4.986903e+001	-5.541690e+001	1.577437e+002	-2.000000e+002	0.000000e+000	-2.000000e+002	0.000000e+000
84598700.000	-4.741387e-001	4.750269e+001	-5.530916e+001	1.558938e+002	-2.000000e+002	0.000000e+000	-2.000000e+002	0.000000e+000
85248690.000	-4.716502e-001	4.513766e+001	-5.513183e+001	1.541410e+002	-2.000000e+002	0.000000e+000	-2.000000e+002	0.000000e+000
85898680.000	-4.698821e-001	4.278051e+001	-5.505942e+001	1.527025e+002	-2.000000e+002	0.000000e+000	-2.000000e+002	0.000000e+000
86548670.000	-4.676134e-001	4.042255e+001	-5.491099e+001	1.509436e+002	-2.000000e+002	0.000000e+000	-2.000000e+002	0.000000e+000
87198660.000	-4.656242e-001	3.806453e+001	-5.481188e+001	1.490716e+002	-2.000000e+002	0.000000e+000	-2.000000e+002	0.000000e+000
87848650.000	-4.628645e-001	3.571602e+001	-5.469421e+001	1.472073e+002	-2.000000e+002	0.000000e+000	-2.000000e+002	0.000000e+000
88498640.000	-4.603773e-001	3.336451e+001	-5.455107e+001	1.454091e+002	-2.000000e+002	0.000000e+000	-2.000000e+002	0.000000e+000
89148630.000	-4.588847e-001	3.101506e+001	-5.442778e+001	1.438999e+002	-2.000000e+002	0.000000e+000	-2.000000e+002	0.000000e+000
89798620.000	-4.563421e-001	2.866476e+001	-5.430736e+001	1.422817e+002	-2.000000e+002	0.000000e+000	-2.000000e+002	0.000000e+000
90448610.000	-4.535511e-001	2.631337e+001	-5.411626e+001	1.405636e+002	-2.000000e+002	0.000000e+000	-2.000000e+002	0.000000e+000
91098600.000	-4.517931e-001	2.396545e+001	-5.392441e+001	1.383844e+002	-2.000000e+002	0.000000e+000	-2.000000e+002	0.000000e+000
91748590.000	-4.486854e-001	2.161532e+001	-5.380060e+001	1.365351e+002	-2.000000e+002	0.000000e+000	-2.000000e+002	0.000000e+000
92398580.000	-4.455060e-001	1.926881e+001	-5.357766e+001	1.339361e+002	-2.000000e+002	0.000000e+000	-2.000000e+002	0.000000e+000
93048570.000	-4.430111e-001	1.692216e+001	-5.377614e+001	1.323113e+002	-2.000000e+002	0.000000e+000	-2.000000e+002	0.000000e+000
93698560.000	-4.400778e-001	1.457642e+001	-5.346634e+001	1.292014e+002	-2.000000e+002	0.000000e+000	-2.000000e+002	0.000000e+000
94348550.000	-4.368191e-001	1.223201e+001	-5.340550e+001	1.274975e+002	-2.000000e+002	0.000000e+000	-2.000000e+002	0.000000e+000
94998540.000	-4.348234e-001	9.887991e+000	-5.336018e+001	1.258647e+002	-2.000000e+002	0.000000e+000	-2.000000e+002	0.000000e+000
95648530.000	-4.320107e-001	7.546343e+000	-5.333889e+001	1.243381e+002	-2.000000e+002	0.000000e+000	-2.000000e+002	0.000000e+000
96298520.000	-4.286049e-001	5.209006e+000	-5.326456e+001	1.226731e+002	-2.000000e+002	0.000000e+000	-2.000000e+002	0.000000e+000
96948510.000	-4.263667e-001	2.867587e+000	-5.325123e+001	1.211976e+002	-2.000000e+002	0.000000e+000	-2.000000e+002	0.000000e+000
97598500.000	-4.242553e-001	5.296222e-001	-5.320647e+001	1.202851e+002	-2.000000e+002	0.000000e+000	-2.000000e+002	0.000000e+000
98248490.000	-4.213649e-001	-1.809435e+000	-5.315114e+001	1.197853e+002	-2.000000e+002	0.000000e+000	-2.000000e+002	0.000000e+000
