!Keysight Technologies,E5063A,MY54503115,A.05.08
!Date: Tue Mar 05 14:46:59 2024
!Data & Calibration Information:
!Freq	S11:NONE(--)	S21:NONE(--)	S12:NONE(--)	S22:NONE(--)
# Hz S dB R 50
100000.000	4.525109e-002	-8.276308e-001	-8.988661e+001	4.278575e+001	-2.000000e+002	0.000000e+000	-2.000000e+002	0.000000e+000
749990.000	8.003838e-003	-3.067198e+000	-8.747047e+001	-1.151023e+001	-2.000000e+002	0.000000e+000	-2.000000e+002	0.000000e+000
1399980.000	9.920515e-003	-5.379584e+000	-1.015996e+002	5.681935e+001	-2.000000e+002	0.000000e+000	-2.000000e+002	0.000000e+000
2049970.000	9.301506e-003	-7.699474e+000	-7.954378e+001	1.232066e+002	-2.000000e+002	0.000000e+000	-2.000000e+002	0.000000e+000
2699960.000	1.035884e-002	-1.002608e+001	-8.246944e+001	9.347518e+001	-2.000000e+002	0.000000e+000	-2.000000e+002	0.000000e+000
3349950.000	1.447474e-002	-1.236801e+001	-7.571593e+001	8.105412e+001	-2.000000e+002	0.000000e+000	-2.000000e+002	0.000000e+000
3999940.000	1.253179e-002	-1.470294e+001	-7.574348e+001	7.439383e+001	-2.000000e+002	0.000000e+000	-2.000000e+002	0.000000e+000
4649930.000	1.483972e-002	-1.703546e+001	-7.397972e+001	7.307133e+001	-2.000000e+002	0.000000e+000	-2.000000e+002	0.000000e+000
5299920.000	1.372624e-002	-1.937150e+001	-7.396978e+001	8.016694e+001	-2.000000e+002	0.000000e+000	-2.000000e+002	0.000000e+000
5949910.000	1.297957e-002	-2.171468e+001	-7.243329e+001	7.391855e+001	-2.000000e+002	0.000000e+000	-2.000000e+002	0.000000e+000
6599900.000	1.285450e-002	-2.404639e+001	-7.053749e+001	7.043814e+001	-2.000000e+002	0.000000e+000	-2.000000e+002	0.000000e+000
7249890.000	1.333496e-002	-2.639003e+001	-7.020360e+001	6.992851e+001	-2.000000e+002	0.000000e+000	-2.000000e+002	0.000000e+000
7899880.000	1.299093e-002	-2.872816e+001	-6.898434e+001	7.247008e+001	-2.000000e+002	0.000000e+000	-2.000000e+002	0.000000e+000
8549870.000	1.729166e-002	-3.107885e+001	-6.863825e+001	6.293661e+001	-2.000000e+002	0.000000e+000	-2.000000e+002	0.000000e+000
9199860.000	1.621407e-002	-3.342033e+001	-6.780682e+001	5.963004e+001	-2.000000e+002	0.000000e+000	-2.000000e+002	0.000000e+000
9849850.000	1.540778e-002	-3.576854e+001	-6.730888e+001	5.765006e+001	-2.000000e+002	0.000000e+000	-2.000000e+002	0.000000e+000
10499840.000	1.273074e-002	-3.810819e+001	-6.673339e+001	5.521777e+001	-2.000000e+002	0.000000e+000	-2.000000e+002	0.000000e+000
11149830.000	9.936523e-003	-4.045007e+001	-6.609637e+001	5.478544e+001	-2.000000e+002	0.000000e+000	-2.000000e+002	0.000000e+000
11799820.000	8.428268e-003	-4.279464e+001	-6.561370e+001	5.028127e+001	-2.000000e+002	0.000000e+000	-2.000000e+002	0.000000e+000
12449810.000	8.765043e-003	-4.514871e+001	-6.503413e+001	4.728358e+001	-2.000000e+002	0.000000e+000	-2.000000e+002	0.000000e+000
13099800.000	1.008010e-002	-4.749610e+001	-6.448598e+001	4.523741e+001	-2.000000e+002	0.000000e+000	-2.000000e+002	0.000000e+000
13749790.000	7.573105e-003	-4.984169e+001	-6.404160e+001	4.358220e+001	-2.000000e+002	0.000000e+000	-2.000000e+002	0.000000e+000
14399780.000	5.054100e-003	-5.220162e+001	-6.360658e+001	4.089679e+001	-2.000000e+002	0.000000e+000	-2.000000e+002	0.000000e+000
15049770.000	4.823310e-003	-5.455697e+001	-6.322365e+001	3.858743e+001	-2.000000e+002	0.000000e+000	-2.000000e+002	0.000000e+000
15699760.000	3.779898e-003	-5.690043e+001	-6.274326e+001	3.613228e+001	-2.000000e+002	0.000000e+000	-2.000000e+002	0.000000e+000
16349750.000	2.542602e-003	-5.925626e+001	-6.242329e+001	3.359128e+001	-2.000000e+002	0.000000e+000	-2.000000e+002	0.000000e+000
16999740.000	6.463617e-004	-6.162866e+001	-6.205018e+001	3.092688e+001	-2.000000e+002	0.000000e+000	-2.000000e+002	0.000000e+000
17649730.000	4.640274e-003	-6.400229e+001	-6.161553e+001	2.847907e+001	-2.000000e+002	0.000000e+000	-2.000000e+002	0.000000e+000
18299720.000	5.880892e-003	-6.638019e+001	-6.125034e+001	2.591431e+001	-2.000000e+002	0.000000e+000	-2.000000e+002	0.000000e+000
18949710.000	2.397846e-003	-6.875440e+001	-6.098000e+001	2.337754e+001	-2.000000e+002	0.000000e+000	-2.000000e+002	0.000000e+000
19599700.000	-5.925567e-003	-7.112768e+001	-6.070355e+001	2.190182e+001	-2.000000e+002	0.000000e+000	-2.000000e+002	0.000000e+000
20249690.000	-1.239164e-002	-7.350446e+001	-6.038226e+001	1.993308e+001	-2.000000e+002	0.000000e+000	-2.000000e+002	0.000000e+000
20899680.000	-1.658957e-002	-7.590956e+001	-6.015925e+001	1.761520e+001	-2.000000e+002	0.000000e+000	-2.000000e+002	0.000000e+000
21549670.000	-2.077883e-002	-7.829941e+001	-5.990371e+001	1.558768e+001	-2.000000e+002	0.000000e+000	-2.000000e+002	0.000000e+000
22199660.000	-2.562534e-002	-8.067634e+001	-5.972439e+001	1.443370e+001	-2.000000e+002	0.000000e+000	-2.000000e+002	0.000000e+000
22849650.000	-3.005751e-002	-8.303777e+001	-5.942833e+001	1.418637e+001	-2.000000e+002	0.000000e+000	-2.000000e+002	0.000000e+000
23499640.000	-3.674691e-002	-8.542424e+001	-5.889142e+001	1.425563e+001	-2.000000e+002	0.000000e+000	-2.000000e+002	0.000000e+000
24149630.000	-4.312086e-002	-8.781838e+001	-5.814569e+001	1.252226e+001	-2.000000e+002	0.000000e+000	-2.000000e+002	0.000000e+000
24799620.000	-4.862017e-002	-9.020757e+001	-5.753310e+001	9.869145e+000	-2.000000e+002	0.000000e+000	-2.000000e+002	0.000000e+000
25449610.000	-5.278607e-002	-9.259284e+001	-5.705864e+001	6.385814e+000	-2.000000e+002	0.000000e+000	-2.000000e+002	0.000000e+000
26099600.000	-5.901197e-002	-9.498364e+001	-5.657346e+001	3.554890e+000	-2.000000e+002	0.000000e+000	-2.000000e+002	0.000000e+000
26749590.000	-6.519593e-002	-9.738066e+001	-5.602801e+001	-3.107023e-001	-2.000000e+002	0.000000e+000	-2.000000e+002	0.000000e+000
27399580.000	-7.156045e-002	-9.978297e+001	-5.573242e+001	-4.400641e+000	-2.000000e+002	0.000000e+000	-2.000000e+002	0.000000e+000
28049570.000	-7.723843e-002	-1.021850e+002	-5.554396e+001	-7.755712e+000	-2.000000e+002	0.000000e+000	-2.000000e+002	0.000000e+000
28699560.000	-8.407486e-002	-1.045882e+002	-5.528974e+001	-1.033084e+001	-2.000000e+002	0.000000e+000	-2.000000e+002	0.000000e+000
29349550.000	-9.063621e-002	-1.069979e+002	-5.512171e+001	-1.353569e+001	-2.000000e+002	0.000000e+000	-2.000000e+002	0.000000e+000
29999540.000	-9.807004e-002	-1.094109e+002	-5.495828e+001	-1.447523e+001	-2.000000e+002	0.000000e+000	-2.000000e+002	0.000000e+000
30649530.000	-1.051518e-001	-1.118318e+002	-5.471342e+001	-1.622264e+001	-2.000000e+002	0.000000e+000	-2.000000e+002	0.000000e+000
31299520.000	-1.124456e-001	-1.142514e+002	-5.434666e+001	-1.666189e+001	-2.000000e+002	0.000000e+000	-2.000000e+002	0.000000e+000
31949510.000	-1.202472e-001	-1.166749e+002	-5.389448e+001	-1.777661e+001	-2.000000e+002	0.000000e+000	-2.000000e+002	0.000000e+000
32599500.000	-1.287892e-001	-1.191004e+002	-5.329135e+001	-1.930712e+001	-2.000000e+002	0.000000e+000	-2.000000e+002	0.000000e+000
33249490.000	-1.370033e-001	-1.215255e+002	-5.278677e+001	-2.063410e+001	-2.000000e+002	0.000000e+000	-2.000000e+002	0.000000e+000
33899480.000	-1.456390e-001	-1.239532e+002	-5.201345e+001	-2.276633e+001	-2.000000e+002	0.000000e+000	-2.000000e+002	0.000000e+000
34549470.000	-1.538586e-001	-1.263834e+002	-5.142797e+001	-2.611383e+001	-2.000000e+002	0.000000e+000	-2.000000e+002	0.000000e+000
35199460.000	-1.625674e-001	-1.288228e+002	-5.093395e+001	-2.793310e+001	-2.000000e+002	0.000000e+000	-2.000000e+002	0.000000e+000
35849450.000	-1.720421e-001	-1.312639e+002	-5.027324e+001	-2.861265e+001	-2.000000e+002	0.000000e+000	-2.000000e+002	0.000000e+000
36499440.000	-1.815087e-001	-1.337065e+002	-4.929242e+001	-3.007322e+001	-2.000000e+002	0.000000e+000	-2.000000e+002	0.000000e+000
37149430.000	-1.910448e-001	-1.361498e+002	-4.824539e+001	-3.318974e+001	-2.000000e+002	0.000000e+000	-2.000000e+002	0.000000e+000
37799420.000	-2.000907e-001	-1.386017e+002	-4.718292e+001	-3.694906e+001	-2.000000e+002	0.000000e+000	-2.000000e+002	0.000000e+000
38449410.000	-2.090763e-001	-1.410535e+002	-4.607612e+001	-4.120383e+001	-2.000000e+002	0.000000e+000	-2.000000e+002	0.000000e+000
39099400.000	-2.179223e-001	-1.435192e+002	-4.498317e+001	-4.675305e+001	-2.000000e+002	0.000000e+000	-2.000000e+002	0.000000e+000
39749390.000	-2.265446e-001	-1.460008e+002	-4.393466e+001	-5.237199e+001	-2.000000e+002	0.000000e+000	-2.000000e+002	0.000000e+000
40399380.000	-2.366659e-001	-1.485026e+002	-4.285248e+001	-5.764827e+001	-2.000000e+002	0.000000e+000	-2.000000e+002	0.000000e+000
41049370.000	-2.494112e-001	-1.510277e+002	-4.152719e+001	-6.260984e+001	-2.000000e+002	0.000000e+000	-2.000000e+002	0.000000e+000
41699360.000	-2.656111e-001	-1.535809e+002	-3.982401e+001	-6.815809e+001	-2.000000e+002	0.000000e+000	-2.000000e+002	0.000000e+000
42349350.000	-2.889988e-001	-1.561901e+002	-3.761946e+001	-7.543957e+001	-2.000000e+002	0.000000e+000	-2.000000e+002	0.000000e+000
42999340.000	-3.324187e-001	-1.588937e+002	-3.468329e+001	-8.658265e+001	-2.000000e+002	0.000000e+000	-2.000000e+002	0.000000e+000
43649330.000	-4.489193e-001	-1.616913e+002	-3.072592e+001	-1.076633e+002	-2.000000e+002	0.000000e+000	-2.000000e+002	0.000000e+000
44299320.000	-7.017223e-001	-1.629673e+002	-2.730050e+001	-1.570442e+002	-2.000000e+002	0.000000e+000	-2.000000e+002	0.000000e+000
44949310.000	-4.953685e-001	-1.638234e+002	-3.056146e+001	1.495317e+002	-2.000000e+002	0.000000e+000	-2.000000e+002	0.000000e+000
45599300.000	-3.777411e-001	-1.665854e+002	-3.500138e+001	1.254750e+002	-2.000000e+002	0.000000e+000	-2.000000e+002	0.000000e+000
46249290.000	-3.481968e-001	-1.692989e+002	-3.846663e+001	1.116935e+002	-2.000000e+002	0.000000e+000	-2.000000e+002	0.000000e+000
46899280.000	-3.412474e-001	-1.719038e+002	-4.133469e+001	1.017096e+002	-2.000000e+002	0.000000e+000	-2.000000e+002	0.000000e+000
47549270.000	-3.413152e-001	-1.744474e+002	-4.383836e+001	9.351871e+001	-2.000000e+002	0.000000e+000	-2.000000e+002	0.000000e+000
48199260.000	-3.438321e-001	-1.769533e+002	-4.616455e+001	8.632149e+001	-2.000000e+002	0.000000e+000	-2.000000e+002	0.000000e+000
48849250.000	-3.466862e-001	-1.794391e+002	-4.839714e+001	7.989818e+001	-2.000000e+002	0.000000e+000	-2.000000e+002	0.000000e+000
49499240.000	-3.492114e-001	1.780786e+002	-5.060656e+001	7.538167e+001	-2.000000e+002	0.000000e+000	-2.000000e+002	0.000000e+000
50149230.000	-3.523408e-001	1.755963e+002	-5.256145e+001	7.230702e+001	-2.000000e+002	0.000000e+000	-2.000000e+002	0.000000e+000
50799220.000	-3.566941e-001	1.731180e+002	-5.425482e+001	6.902367e+001	-2.000000e+002	0.000000e+000	-2.000000e+002	0.000000e+000
51449210.000	-3.615847e-001	1.706396e+002	-5.586681e+001	6.469315e+001	-2.000000e+002	0.000000e+000	-2.000000e+002	0.000000e+000
52099200.000	-3.665910e-001	1.681700e+002	-5.752014e+001	6.034177e+001	-2.000000e+002	0.000000e+000	-2.000000e+002	0.000000e+000
52749190.000	-3.717921e-001	1.657024e+002	-5.918399e+001	5.514434e+001	-2.000000e+002	0.000000e+000	-2.000000e+002	0.000000e+000
53399180.000	-3.770884e-001	1.632380e+002	-6.072748e+001	4.998029e+001	-2.000000e+002	0.000000e+000	-2.000000e+002	0.000000e+000
54049170.000	-3.826165e-001	1.607754e+002	-6.228710e+001	4.437517e+001	-2.000000e+002	0.000000e+000	-2.000000e+002	0.000000e+000
54699160.000	-3.885300e-001	1.583144e+002	-6.373087e+001	3.571940e+001	-2.000000e+002	0.000000e+000	-2.000000e+002	0.000000e+000
55349150.000	-3.941200e-001	1.558572e+002	-6.511196e+001	2.580348e+001	-2.000000e+002	0.000000e+000	-2.000000e+002	0.000000e+000
55999140.000	-3.996248e-001	1.534041e+002	-6.623070e+001	1.149534e+001	-2.000000e+002	0.000000e+000	-2.000000e+002	0.000000e+000
56649130.000	-4.050051e-001	1.509514e+002	-6.713011e+001	-5.179955e+000	-2.000000e+002	0.000000e+000	-2.000000e+002	0.000000e+000
57299120.000	-4.102922e-001	1.485031e+002	-6.795135e+001	-2.171491e+001	-2.000000e+002	0.000000e+000	-2.000000e+002	0.000000e+000
57949110.000	-4.152984e-001	1.460530e+002	-6.757224e+001	-3.846886e+001	-2.000000e+002	0.000000e+000	-2.000000e+002	0.000000e+000
58599100.000	-4.199777e-001	1.436059e+002	-6.739847e+001	-5.439668e+001	-2.000000e+002	0.000000e+000	-2.000000e+002	0.000000e+000
59249090.000	-4.250737e-001	1.411632e+002	-6.667913e+001	-6.617625e+001	-2.000000e+002	0.000000e+000	-2.000000e+002	0.000000e+000
59899080.000	-4.294926e-001	1.387199e+002	-6.607163e+001	-7.490017e+001	-2.000000e+002	0.000000e+000	-2.000000e+002	0.000000e+000
60549070.000	-4.343722e-001	1.362816e+002	-6.519436e+001	-8.081842e+001	-2.000000e+002	0.000000e+000	-2.000000e+002	0.000000e+000
61199060.000	-4.394843e-001	1.338485e+002	-6.420599e+001	-8.583938e+001	-2.000000e+002	0.000000e+000	-2.000000e+002	0.000000e+000
61849050.000	-4.438697e-001	1.314158e+002	-6.289902e+001	-9.133572e+001	-2.000000e+002	0.000000e+000	-2.000000e+002	0.000000e+000
62499040.000	-4.480332e-001	1.289885e+002	-6.178619e+001	-9.778521e+001	-2.000000e+002	0.000000e+000	-2.000000e+002	0.000000e+000
63149030.000	-4.514277e-001	1.265611e+002	-6.065631e+001	-1.052150e+002	-2.000000e+002	0.000000e+000	-2.000000e+002	0.000000e+000
63799020.000	-4.550355e-001	1.241354e+002	-5.994224e+001	-1.129419e+002	-2.000000e+002	0.000000e+000	-2.000000e+002	0.000000e+000
64449010.000	-4.582393e-001	1.217154e+002	-5.947985e+001	-1.200713e+002	-2.000000e+002	0.000000e+000	-2.000000e+002	0.000000e+000
65099000.000	-4.606634e-001	1.192907e+002	-5.922358e+001	-1.264595e+002	-2.000000e+002	0.000000e+000	-2.000000e+002	0.000000e+000
65748990.000	-4.625244e-001	1.168650e+002	-5.897521e+001	-1.316260e+002	-2.000000e+002	0.000000e+000	-2.000000e+002	0.000000e+000
66398980.000	-4.656896e-001	1.144439e+002	-5.887464e+001	-1.357738e+002	-2.000000e+002	0.000000e+000	-2.000000e+002	0.000000e+000
67048970.000	-4.678628e-001	1.120214e+002	-5.869453e+001	-1.397763e+002	-2.000000e+002	0.000000e+000	-2.000000e+002	0.000000e+000
67698960.000	-4.701239e-001	1.096057e+002	-5.851173e+001	-1.439298e+002	-2.000000e+002	0.000000e+000	-2.000000e+002	0.000000e+000
68348950.000	-4.721562e-001	1.071906e+002	-5.837722e+001	-1.474188e+002	-2.000000e+002	0.000000e+000	-2.000000e+002	0.000000e+000
68998940.000	-4.740600e-001	1.047788e+002	-5.824873e+001	-1.506441e+002	-2.000000e+002	0.000000e+000	-2.000000e+002	0.000000e+000
69648930.000	-4.758794e-001	1.023654e+002	-5.811353e+001	-1.531419e+002	-2.000000e+002	0.000000e+000	-2.000000e+002	0.000000e+000
70298920.000	-4.765700e-001	9.994469e+001	-5.802373e+001	-1.559633e+002	-2.000000e+002	0.000000e+000	-2.000000e+002	0.000000e+000
70948910.000	-4.790387e-001	9.753765e+001	-5.798765e+001	-1.578361e+002	-2.000000e+002	0.000000e+000	-2.000000e+002	0.000000e+000
71598900.000	-4.798325e-001	9.512870e+001	-5.778800e+001	-1.596927e+002	-2.000000e+002	0.000000e+000	-2.000000e+002	0.000000e+000
72248890.000	-4.812715e-001	9.273038e+001	-5.753288e+001	-1.616603e+002	-2.000000e+002	0.000000e+000	-2.000000e+002	0.000000e+000
72898880.000	-4.825163e-001	9.033098e+001	-5.726218e+001	-1.640914e+002	-2.000000e+002	0.000000e+000	-2.000000e+002	0.000000e+000
73548870.000	-4.839589e-001	8.793250e+001	-5.705745e+001	-1.667912e+002	-2.000000e+002	0.000000e+000	-2.000000e+002	0.000000e+000
74198860.000	-4.841821e-001	8.553965e+001	-5.683636e+001	-1.693739e+002	-2.000000e+002	0.000000e+000	-2.000000e+002	0.000000e+000
74848850.000	-4.851004e-001	8.314689e+001	-5.664213e+001	-1.724050e+002	-2.000000e+002	0.000000e+000	-2.000000e+002	0.000000e+000
75498840.000	-4.848850e-001	8.075702e+001	-5.652094e+001	-1.757949e+002	-2.000000e+002	0.000000e+000	-2.000000e+002	0.000000e+000
76148830.000	-4.849045e-001	7.836276e+001	-5.648746e+001	-1.786700e+002	-2.000000e+002	0.000000e+000	-2.000000e+002	0.000000e+000
76798820.000	-4.843207e-001	7.597360e+001	-5.645843e+001	1.792089e+002	-2.000000e+002	0.000000e+000	-2.000000e+002	0.000000e+000
77448810.000	-4.858841e-001	7.360352e+001	-5.651507e+001	1.769793e+002	-2.000000e+002	0.000000e+000	-2.000000e+002	0.000000e+000
78098800.000	-4.860438e-001	7.122071e+001	-5.639217e+001	1.751405e+002	-2.000000e+002	0.000000e+000	-2.000000e+002	0.000000e+000
78748790.000	-4.857392e-001	6.884167e+001	-5.628741e+001	1.732253e+002	-2.000000e+002	0.000000e+000	-2.000000e+002	0.000000e+000
79398780.000	-4.844621e-001	6.646396e+001	-5.620485e+001	1.716352e+002	-2.000000e+002	0.000000e+000	-2.000000e+002	0.000000e+000
80048770.000	-4.828792e-001	6.407948e+001	-5.607402e+001	1.696902e+002	-2.000000e+002	0.000000e+000	-2.000000e+002	0.000000e+000
80698760.000	-4.817935e-001	6.170986e+001	-5.596612e+001	1.675909e+002	-2.000000e+002	0.000000e+000	-2.000000e+002	0.000000e+000
81348750.000	-4.800288e-001	5.933324e+001	-5.586272e+001	1.656364e+002	-2.000000e+002	0.000000e+000	-2.000000e+002	0.000000e+000
81998740.000	-4.785606e-001	5.696364e+001	-5.575221e+001	1.634122e+002	-2.000000e+002	0.000000e+000	-2.000000e+002	0.000000e+000
82648730.000	-4.785823e-001	5.460851e+001	-5.563336e+001	1.616480e+002	-2.000000e+002	0.000000e+000	-2.000000e+002	0.000000e+000
83298720.000	-4.770314e-001	5.223965e+001	-5.553642e+001	1.598880e+002	-2.000000e+002	0.000000e+000	-2.000000e+002	0.000000e+000
83948710.000	-4.750538e-001	4.987109e+001	-5.546084e+001	1.580423e+002	-2.000000e+002	0.000000e+000	-2.000000e+002	0.000000e+000
84598700.000	-4.734654e-001	4.750442e+001	-5.536786e+001	1.561642e+002	-2.000000e+002	0.000000e+000	-2.000000e+002	0.000000e+000
85248690.000	-4.719731e-001	4.514382e+001	-5.531123e+001	1.540349e+002	-2.000000e+002	0.000000e+000	-2.000000e+002	0.000000e+000
85898680.000	-4.698228e-001	4.278205e+001	-5.514603e+001	1.528391e+002	-2.000000e+002	0.000000e+000	-2.000000e+002	0.000000e+000
86548670.000	-4.676843e-001	4.042278e+001	-5.503386e+001	1.509110e+002	-2.000000e+002	0.000000e+000	-2.000000e+002	0.000000e+000
87198660.000	-4.653380e-001	3.806716e+001	-5.491359e+001	1.491620e+002	-2.000000e+002	0.000000e+000	-2.000000e+002	0.000000e+000
87848650.000	-4.625123e-001	3.571647e+001	-5.476295e+001	1.474822e+002	-2.000000e+002	0.000000e+000	-2.000000e+002	0.000000e+000
88498640.000	-4.605387e-001	3.336129e+001	-5.463933e+001	1.458102e+002	-2.000000e+002	0.000000e+000	-2.000000e+002	0.000000e+000
89148630.000	-4.589435e-001	3.101545e+001	-5.456568e+001	1.442635e+002	-2.000000e+002	0.000000e+000	-2.000000e+002	0.000000e+000
89798620.000	-4.561206e-001	2.866472e+001	-5.436450e+001	1.427527e+002	-2.000000e+002	0.000000e+000	-2.000000e+002	0.000000e+000
90448610.000	-4.538446e-001	2.631859e+001	-5.416037e+001	1.409180e+002	-2.000000e+002	0.000000e+000	-2.000000e+002	0.000000e+000
91098600.000	-4.519444e-001	2.396703e+001	-5.396330e+001	1.391176e+002	-2.000000e+002	0.000000e+000	-2.000000e+002	0.000000e+000
91748590.000	-4.488022e-001	2.161813e+001	-5.381028e+001	1.368093e+002	-2.000000e+002	0.000000e+000	-2.000000e+002	0.000000e+000
92398580.000	-4.458370e-001	1.927034e+001	-5.364230e+001	1.340882e+002	-2.000000e+002	0.000000e+000	-2.000000e+002	0.000000e+000
93048570.000	-4.428937e-001	1.692676e+001	-5.380444e+001	1.305298e+002	-2.000000e+002	0.000000e+000	-2.000000e+002	0.000000e+000
93698560.000	-4.401371e-001	1.457736e+001	-5.352333e+001	1.297431e+002	-2.000000e+002	0.000000e+000	-2.000000e+002	0.000000e+000
94348550.000	-4.367941e-001	1.222931e+001	-5.353400e+001	1.280771e+002	-2.000000e+002	0.000000e+000	-2.000000e+002	0.000000e+000
94998540.000	-4.351544e-001	9.887388e+000	-5.361339e+001	1.256236e+002	-2.000000e+002	0.000000e+000	-2.000000e+002	0.000000e+000
95648530.000	-4.321801e-001	7.547078e+000	-5.339994e+001	1.245380e+002	-2.000000e+002	0.000000e+000	-2.000000e+002	0.000000e+000
96298520.000	-4.291792e-001	5.206695e+000	-5.331894e+001	1.230604e+002	-2.000000e+002	0.000000e+000	-2.000000e+002	0.000000e+000
96948510.000	-4.268645e-001	2.870068e+000	-5.332637e+001	1.213805e+002	-2.000000e+002	0.000000e+000	-2.000000e+002	0.000000e+000
97598500.000	-4.247350e-001	5.311468e-001	-5.329505e+001	1.203638e+002	-2.000000e+002	0.000000e+000	-2.000000e+002	0.000000e+000
98248490.000	-4.218006e-001	-1.806498e+000	-5.331065e+001	1.203407e+002	-2.000000e+002	0.000000e+000	-2.000000e+002	0.000000e+000
