!Keysight Technologies,E5063A,MY54503115,A.05.08
!Date: Tue Mar 05 14:50:40 2024
!Data & Calibration Information:
!Freq	S11:NONE(--)	S21:NONE(--)	S12:NONE(--)	S22:NONE(--)
# Hz S dB R 50
100000.000	4.605765e-002	-8.285784e-001	-9.169041e+001	8.543617e+000	-2.000000e+002	0.000000e+000	-2.000000e+002	0.000000e+000
749990.000	8.511985e-003	-3.065229e+000	-8.467481e+001	-7.237741e+001	-2.000000e+002	0.000000e+000	-2.000000e+002	0.000000e+000
1399980.000	1.011418e-002	-5.376501e+000	-8.445269e+001	1.479981e+002	-2.000000e+002	0.000000e+000	-2.000000e+002	0.000000e+000
2049970.000	9.347917e-003	-7.699730e+000	-7.977083e+001	1.254895e+002	-2.000000e+002	0.000000e+000	-2.000000e+002	0.000000e+000
2699960.000	1.049808e-002	-1.002600e+001	-7.736209e+001	8.212223e+001	-2.000000e+002	0.000000e+000	-2.000000e+002	0.000000e+000
3349950.000	1.395946e-002	-1.236130e+001	-7.524837e+001	8.086825e+001	-2.000000e+002	0.000000e+000	-2.000000e+002	0.000000e+000
3999940.000	1.248889e-002	-1.470135e+001	-7.512623e+001	8.015910e+001	-2.000000e+002	0.000000e+000	-2.000000e+002	0.000000e+000
4649930.000	1.531825e-002	-1.703689e+001	-7.429611e+001	7.457491e+001	-2.000000e+002	0.000000e+000	-2.000000e+002	0.000000e+000
5299920.000	1.328781e-002	-1.936951e+001	-7.306334e+001	7.502807e+001	-2.000000e+002	0.000000e+000	-2.000000e+002	0.000000e+000
5949910.000	1.255928e-002	-2.170780e+001	-7.009634e+001	7.188404e+001	-2.000000e+002	0.000000e+000	-2.000000e+002	0.000000e+000
6599900.000	1.324198e-002	-2.405273e+001	-7.165565e+001	6.819969e+001	-2.000000e+002	0.000000e+000	-2.000000e+002	0.000000e+000
7249890.000	1.374446e-002	-2.639384e+001	-7.001035e+001	7.192543e+001	-2.000000e+002	0.000000e+000	-2.000000e+002	0.000000e+000
7899880.000	1.252069e-002	-2.873194e+001	-6.917641e+001	6.153782e+001	-2.000000e+002	0.000000e+000	-2.000000e+002	0.000000e+000
8549870.000	1.738875e-002	-3.107843e+001	-6.854657e+001	6.068386e+001	-2.000000e+002	0.000000e+000	-2.000000e+002	0.000000e+000
9199860.000	1.637653e-002	-3.342211e+001	-6.781422e+001	5.995847e+001	-2.000000e+002	0.000000e+000	-2.000000e+002	0.000000e+000
9849850.000	1.568450e-002	-3.576748e+001	-6.725187e+001	5.791527e+001	-2.000000e+002	0.000000e+000	-2.000000e+002	0.000000e+000
10499840.000	1.270876e-002	-3.810773e+001	-6.662114e+001	5.480175e+001	-2.000000e+002	0.000000e+000	-2.000000e+002	0.000000e+000
11149830.000	9.894104e-003	-4.045010e+001	-6.600021e+001	5.245382e+001	-2.000000e+002	0.000000e+000	-2.000000e+002	0.000000e+000
11799820.000	8.574001e-003	-4.279319e+001	-6.543103e+001	4.969885e+001	-2.000000e+002	0.000000e+000	-2.000000e+002	0.000000e+000
12449810.000	8.656368e-003	-4.514832e+001	-6.488697e+001	4.667520e+001	-2.000000e+002	0.000000e+000	-2.000000e+002	0.000000e+000
13099800.000	1.010790e-002	-4.749635e+001	-6.451846e+001	4.492321e+001	-2.000000e+002	0.000000e+000	-2.000000e+002	0.000000e+000
13749790.000	7.445615e-003	-4.984015e+001	-6.409052e+001	4.321086e+001	-2.000000e+002	0.000000e+000	-2.000000e+002	0.000000e+000
14399780.000	4.994648e-003	-5.220136e+001	-6.354384e+001	4.077910e+001	-2.000000e+002	0.000000e+000	-2.000000e+002	0.000000e+000
15049770.000	4.605110e-003	-5.455676e+001	-6.317752e+001	3.793947e+001	-2.000000e+002	0.000000e+000	-2.000000e+002	0.000000e+000
15699760.000	3.274927e-003	-5.690017e+001	-6.278921e+001	3.611682e+001	-2.000000e+002	0.000000e+000	-2.000000e+002	0.000000e+000
16349750.000	2.478439e-003	-5.925748e+001	-6.238894e+001	3.367894e+001	-2.000000e+002	0.000000e+000	-2.000000e+002	0.000000e+000
16999740.000	1.308463e-004	-6.162925e+001	-6.194589e+001	3.092525e+001	-2.000000e+002	0.000000e+000	-2.000000e+002	0.000000e+000
17649730.000	4.416382e-003	-6.400581e+001	-6.169284e+001	2.871716e+001	-2.000000e+002	0.000000e+000	-2.000000e+002	0.000000e+000
18299720.000	5.203147e-003	-6.638225e+001	-6.128381e+001	2.571193e+001	-2.000000e+002	0.000000e+000	-2.000000e+002	0.000000e+000
18949710.000	1.898918e-003	-6.875467e+001	-6.100964e+001	2.392311e+001	-2.000000e+002	0.000000e+000	-2.000000e+002	0.000000e+000
19599700.000	-6.461257e-003	-7.112924e+001	-6.072793e+001	2.174146e+001	-2.000000e+002	0.000000e+000	-2.000000e+002	0.000000e+000
20249690.000	-1.281098e-002	-7.350587e+001	-6.038326e+001	1.941098e+001	-2.000000e+002	0.000000e+000	-2.000000e+002	0.000000e+000
20899680.000	-1.741950e-002	-7.591253e+001	-6.017348e+001	1.697712e+001	-2.000000e+002	0.000000e+000	-2.000000e+002	0.000000e+000
21549670.000	-2.157941e-002	-7.830153e+001	-5.994531e+001	1.544925e+001	-2.000000e+002	0.000000e+000	-2.000000e+002	0.000000e+000
22199660.000	-2.663920e-002	-8.067934e+001	-5.972728e+001	1.458091e+001	-2.000000e+002	0.000000e+000	-2.000000e+002	0.000000e+000
22849650.000	-3.128170e-002	-8.303955e+001	-5.937671e+001	1.444026e+001	-2.000000e+002	0.000000e+000	-2.000000e+002	0.000000e+000
23499640.000	-3.783821e-002	-8.542820e+001	-5.881726e+001	1.440697e+001	-2.000000e+002	0.000000e+000	-2.000000e+002	0.000000e+000
24149630.000	-4.438330e-002	-8.782133e+001	-5.810921e+001	1.188930e+001	-2.000000e+002	0.000000e+000	-2.000000e+002	0.000000e+000
24799620.000	-4.978760e-002	-9.021329e+001	-5.754984e+001	8.908646e+000	-2.000000e+002	0.000000e+000	-2.000000e+002	0.000000e+000
25449610.000	-5.406075e-002	-9.259753e+001	-5.714470e+001	5.969761e+000	-2.000000e+002	0.000000e+000	-2.000000e+002	0.000000e+000
26099600.000	-6.036317e-002	-9.498775e+001	-5.662937e+001	3.160290e+000	-2.000000e+002	0.000000e+000	-2.000000e+002	0.000000e+000
26749590.000	-6.661826e-002	-9.738619e+001	-5.607572e+001	-5.174209e-001	-2.000000e+002	0.000000e+000	-2.000000e+002	0.000000e+000
27399580.000	-7.296196e-002	-9.978928e+001	-5.578964e+001	-4.193040e+000	-2.000000e+002	0.000000e+000	-2.000000e+002	0.000000e+000
28049570.000	-7.854343e-002	-1.021912e+002	-5.561556e+001	-7.525720e+000	-2.000000e+002	0.000000e+000	-2.000000e+002	0.000000e+000
28699560.000	-8.572540e-002	-1.045953e+002	-5.538651e+001	-1.045550e+001	-2.000000e+002	0.000000e+000	-2.000000e+002	0.000000e+000
29349550.000	-9.280753e-002	-1.070036e+002	-5.529047e+001	-1.246978e+001	-2.000000e+002	0.000000e+000	-2.000000e+002	0.000000e+000
29999540.000	-9.976240e-002	-1.094185e+002	-5.505903e+001	-1.443097e+001	-2.000000e+002	0.000000e+000	-2.000000e+002	0.000000e+000
30649530.000	-1.070651e-001	-1.118390e+002	-5.475981e+001	-1.578696e+001	-2.000000e+002	0.000000e+000	-2.000000e+002	0.000000e+000
31299520.000	-1.145600e-001	-1.142584e+002	-5.440583e+001	-1.596364e+001	-2.000000e+002	0.000000e+000	-2.000000e+002	0.000000e+000
31949510.000	-1.227167e-001	-1.166822e+002	-5.383031e+001	-1.689607e+001	-2.000000e+002	0.000000e+000	-2.000000e+002	0.000000e+000
32599500.000	-1.310229e-001	-1.191072e+002	-5.319190e+001	-1.858536e+001	-2.000000e+002	0.000000e+000	-2.000000e+002	0.000000e+000
33249490.000	-1.392596e-001	-1.215315e+002	-5.261906e+001	-2.065665e+001	-2.000000e+002	0.000000e+000	-2.000000e+002	0.000000e+000
33899480.000	-1.477568e-001	-1.239613e+002	-5.193947e+001	-2.304647e+001	-2.000000e+002	0.000000e+000	-2.000000e+002	0.000000e+000
34549470.000	-1.560618e-001	-1.263901e+002	-5.138594e+001	-2.603838e+001	-2.000000e+002	0.000000e+000	-2.000000e+002	0.000000e+000
35199460.000	-1.648413e-001	-1.288307e+002	-5.096323e+001	-2.799957e+001	-2.000000e+002	0.000000e+000	-2.000000e+002	0.000000e+000
35849450.000	-1.743798e-001	-1.312742e+002	-5.026667e+001	-2.866167e+001	-2.000000e+002	0.000000e+000	-2.000000e+002	0.000000e+000
36499440.000	-1.840973e-001	-1.337158e+002	-4.929755e+001	-3.007362e+001	-2.000000e+002	0.000000e+000	-2.000000e+002	0.000000e+000
37149430.000	-1.935839e-001	-1.361619e+002	-4.826338e+001	-3.295563e+001	-2.000000e+002	0.000000e+000	-2.000000e+002	0.000000e+000
37799420.000	-2.026329e-001	-1.386131e+002	-4.721378e+001	-3.652254e+001	-2.000000e+002	0.000000e+000	-2.000000e+002	0.000000e+000
38449410.000	-2.118316e-001	-1.410658e+002	-4.606228e+001	-4.054054e+001	-2.000000e+002	0.000000e+000	-2.000000e+002	0.000000e+000
39099400.000	-2.207468e-001	-1.435326e+002	-4.490881e+001	-4.598683e+001	-2.000000e+002	0.000000e+000	-2.000000e+002	0.000000e+000
39749390.000	-2.295057e-001	-1.460130e+002	-4.382716e+001	-5.180903e+001	-2.000000e+002	0.000000e+000	-2.000000e+002	0.000000e+000
40399380.000	-2.396674e-001	-1.485166e+002	-4.271128e+001	-5.715917e+001	-2.000000e+002	0.000000e+000	-2.000000e+002	0.000000e+000
41049370.000	-2.521542e-001	-1.510421e+002	-4.135071e+001	-6.219675e+001	-2.000000e+002	0.000000e+000	-2.000000e+002	0.000000e+000
41699360.000	-2.680471e-001	-1.536029e+002	-3.959661e+001	-6.800480e+001	-2.000000e+002	0.000000e+000	-2.000000e+002	0.000000e+000
42349350.000	-2.916179e-001	-1.562281e+002	-3.734116e+001	-7.566596e+001	-2.000000e+002	0.000000e+000	-2.000000e+002	0.000000e+000
42999340.000	-3.378365e-001	-1.589720e+002	-3.433326e+001	-8.747559e+001	-2.000000e+002	0.000000e+000	-2.000000e+002	0.000000e+000
43649330.000	-4.765474e-001	-1.618030e+002	-3.026139e+001	-1.105360e+002	-2.000000e+002	0.000000e+000	-2.000000e+002	0.000000e+000
44299320.000	-7.254940e-001	-1.626315e+002	-2.743501e+001	-1.639488e+002	-2.000000e+002	0.000000e+000	-2.000000e+002	0.000000e+000
44949310.000	-4.810782e-001	-1.637740e+002	-3.133527e+001	1.474697e+002	-2.000000e+002	0.000000e+000	-2.000000e+002	0.000000e+000
45599300.000	-3.723407e-001	-1.665704e+002	-3.554870e+001	1.268153e+002	-2.000000e+002	0.000000e+000	-2.000000e+002	0.000000e+000
46249290.000	-3.431743e-001	-1.692987e+002	-3.864707e+001	1.139841e+002	-2.000000e+002	0.000000e+000	-2.000000e+002	0.000000e+000
46899280.000	-3.378572e-001	-1.719231e+002	-4.125372e+001	1.031026e+002	-2.000000e+002	0.000000e+000	-2.000000e+002	0.000000e+000
47549270.000	-3.402779e-001	-1.744752e+002	-4.371121e+001	9.352553e+001	-2.000000e+002	0.000000e+000	-2.000000e+002	0.000000e+000
48199260.000	-3.443965e-001	-1.769828e+002	-4.608527e+001	8.540579e+001	-2.000000e+002	0.000000e+000	-2.000000e+002	0.000000e+000
48849250.000	-3.485054e-001	-1.794662e+002	-4.842700e+001	7.887451e+001	-2.000000e+002	0.000000e+000	-2.000000e+002	0.000000e+000
49499240.000	-3.518918e-001	1.780551e+002	-5.075108e+001	7.433220e+001	-2.000000e+002	0.000000e+000	-2.000000e+002	0.000000e+000
50149230.000	-3.550480e-001	1.755758e+002	-5.272206e+001	7.159087e+001	-2.000000e+002	0.000000e+000	-2.000000e+002	0.000000e+000
50799220.000	-3.595067e-001	1.730998e+002	-5.444387e+001	6.868322e+001	-2.000000e+002	0.000000e+000	-2.000000e+002	0.000000e+000
51449210.000	-3.643806e-001	1.706225e+002	-5.609836e+001	6.480954e+001	-2.000000e+002	0.000000e+000	-2.000000e+002	0.000000e+000
52099200.000	-3.696955e-001	1.681533e+002	-5.774362e+001	6.042671e+001	-2.000000e+002	0.000000e+000	-2.000000e+002	0.000000e+000
52749190.000	-3.748994e-001	1.656875e+002	-5.942467e+001	5.586843e+001	-2.000000e+002	0.000000e+000	-2.000000e+002	0.000000e+000
53399180.000	-3.801872e-001	1.632230e+002	-6.101912e+001	5.113645e+001	-2.000000e+002	0.000000e+000	-2.000000e+002	0.000000e+000
54049170.000	-3.858087e-001	1.607613e+002	-6.251802e+001	4.548801e+001	-2.000000e+002	0.000000e+000	-2.000000e+002	0.000000e+000
54699160.000	-3.914974e-001	1.582992e+002	-6.398049e+001	3.798995e+001	-2.000000e+002	0.000000e+000	-2.000000e+002	0.000000e+000
55349150.000	-3.972063e-001	1.558442e+002	-6.518762e+001	2.757483e+001	-2.000000e+002	0.000000e+000	-2.000000e+002	0.000000e+000
55999140.000	-4.027414e-001	1.533887e+002	-6.639180e+001	1.419998e+001	-2.000000e+002	0.000000e+000	-2.000000e+002	0.000000e+000
56649130.000	-4.081312e-001	1.509381e+002	-6.727272e+001	-1.519766e+000	-2.000000e+002	0.000000e+000	-2.000000e+002	0.000000e+000
57299120.000	-4.133053e-001	1.484887e+002	-6.799242e+001	-1.808724e+001	-2.000000e+002	0.000000e+000	-2.000000e+002	0.000000e+000
57949110.000	-4.183874e-001	1.460406e+002	-6.769601e+001	-3.672363e+001	-2.000000e+002	0.000000e+000	-2.000000e+002	0.000000e+000
58599100.000	-4.229889e-001	1.435922e+002	-6.733820e+001	-5.160735e+001	-2.000000e+002	0.000000e+000	-2.000000e+002	0.000000e+000
59249090.000	-4.280369e-001	1.411503e+002	-6.667830e+001	-6.416351e+001	-2.000000e+002	0.000000e+000	-2.000000e+002	0.000000e+000
59899080.000	-4.325867e-001	1.387074e+002	-6.616358e+001	-7.375849e+001	-2.000000e+002	0.000000e+000	-2.000000e+002	0.000000e+000
60549070.000	-4.374085e-001	1.362707e+002	-6.513244e+001	-7.963290e+001	-2.000000e+002	0.000000e+000	-2.000000e+002	0.000000e+000
61199060.000	-4.423721e-001	1.338375e+002	-6.413268e+001	-8.525011e+001	-2.000000e+002	0.000000e+000	-2.000000e+002	0.000000e+000
61849050.000	-4.464386e-001	1.314029e+002	-6.285677e+001	-8.908675e+001	-2.000000e+002	0.000000e+000	-2.000000e+002	0.000000e+000
62499040.000	-4.509707e-001	1.289762e+002	-6.168104e+001	-9.605032e+001	-2.000000e+002	0.000000e+000	-2.000000e+002	0.000000e+000
63149030.000	-4.545637e-001	1.265494e+002	-6.055434e+001	-1.040474e+002	-2.000000e+002	0.000000e+000	-2.000000e+002	0.000000e+000
63799020.000	-4.578058e-001	1.241262e+002	-5.982495e+001	-1.118688e+002	-2.000000e+002	0.000000e+000	-2.000000e+002	0.000000e+000
64449010.000	-4.611098e-001	1.217059e+002	-5.940041e+001	-1.196748e+002	-2.000000e+002	0.000000e+000	-2.000000e+002	0.000000e+000
65099000.000	-4.632560e-001	1.192798e+002	-5.907540e+001	-1.253867e+002	-2.000000e+002	0.000000e+000	-2.000000e+002	0.000000e+000
65748990.000	-4.652111e-001	1.168531e+002	-5.889846e+001	-1.309076e+002	-2.000000e+002	0.000000e+000	-2.000000e+002	0.000000e+000
66398980.000	-4.683165e-001	1.144319e+002	-5.876060e+001	-1.355310e+002	-2.000000e+002	0.000000e+000	-2.000000e+002	0.000000e+000
67048970.000	-4.701677e-001	1.120124e+002	-5.853471e+001	-1.397859e+002	-2.000000e+002	0.000000e+000	-2.000000e+002	0.000000e+000
67698960.000	-4.726322e-001	1.095987e+002	-5.835751e+001	-1.434012e+002	-2.000000e+002	0.000000e+000	-2.000000e+002	0.000000e+000
68348950.000	-4.740659e-001	1.071832e+002	-5.819699e+001	-1.471840e+002	-2.000000e+002	0.000000e+000	-2.000000e+002	0.000000e+000
68998940.000	-4.764725e-001	1.047699e+002	-5.807414e+001	-1.501518e+002	-2.000000e+002	0.000000e+000	-2.000000e+002	0.000000e+000
69648930.000	-4.776405e-001	1.023571e+002	-5.797267e+001	-1.531729e+002	-2.000000e+002	0.000000e+000	-2.000000e+002	0.000000e+000
70298920.000	-4.784773e-001	9.993612e+001	-5.798977e+001	-1.556171e+002	-2.000000e+002	0.000000e+000	-2.000000e+002	0.000000e+000
70948910.000	-4.809274e-001	9.753062e+001	-5.782745e+001	-1.577701e+002	-2.000000e+002	0.000000e+000	-2.000000e+002	0.000000e+000
71598900.000	-4.816463e-001	9.512264e+001	-5.765910e+001	-1.600866e+002	-2.000000e+002	0.000000e+000	-2.000000e+002	0.000000e+000
72248890.000	-4.834205e-001	9.272218e+001	-5.744099e+001	-1.618286e+002	-2.000000e+002	0.000000e+000	-2.000000e+002	0.000000e+000
72898880.000	-4.841485e-001	9.032309e+001	-5.723693e+001	-1.646207e+002	-2.000000e+002	0.000000e+000	-2.000000e+002	0.000000e+000
73548870.000	-4.851846e-001	8.792818e+001	-5.700497e+001	-1.669873e+002	-2.000000e+002	0.000000e+000	-2.000000e+002	0.000000e+000
74198860.000	-4.856289e-001	8.553215e+001	-5.681353e+001	-1.697294e+002	-2.000000e+002	0.000000e+000	-2.000000e+002	0.000000e+000
74848850.000	-4.865438e-001	8.313944e+001	-5.660920e+001	-1.725235e+002	-2.000000e+002	0.000000e+000	-2.000000e+002	0.000000e+000
75498840.000	-4.863705e-001	8.074806e+001	-5.651225e+001	-1.757243e+002	-2.000000e+002	0.000000e+000	-2.000000e+002	0.000000e+000
76148830.000	-4.863980e-001	7.835705e+001	-5.642278e+001	-1.786908e+002	-2.000000e+002	0.000000e+000	-2.000000e+002	0.000000e+000
76798820.000	-4.855972e-001	7.596822e+001	-5.646166e+001	1.790148e+002	-2.000000e+002	0.000000e+000	-2.000000e+002	0.000000e+000
77448810.000	-4.868739e-001	7.360002e+001	-5.637705e+001	1.770208e+002	-2.000000e+002	0.000000e+000	-2.000000e+002	0.000000e+000
78098800.000	-4.869587e-001	7.121480e+001	-5.628353e+001	1.752956e+002	-2.000000e+002	0.000000e+000	-2.000000e+002	0.000000e+000
78748790.000	-4.867228e-001	6.883695e+001	-5.626994e+001	1.734879e+002	-2.000000e+002	0.000000e+000	-2.000000e+002	0.000000e+000
79398780.000	-4.854687e-001	6.645962e+001	-5.614901e+001	1.716352e+002	-2.000000e+002	0.000000e+000	-2.000000e+002	0.000000e+000
80048770.000	-4.839831e-001	6.407748e+001	-5.596948e+001	1.694195e+002	-2.000000e+002	0.000000e+000	-2.000000e+002	0.000000e+000
80698760.000	-4.823347e-001	6.170294e+001	-5.582171e+001	1.676937e+002	-2.000000e+002	0.000000e+000	-2.000000e+002	0.000000e+000
81348750.000	-4.810229e-001	5.933271e+001	-5.578491e+001	1.653780e+002	-2.000000e+002	0.000000e+000	-2.000000e+002	0.000000e+000
81998740.000	-4.797131e-001	5.696032e+001	-5.560398e+001	1.636018e+002	-2.000000e+002	0.000000e+000	-2.000000e+002	0.000000e+000
82648730.000	-4.791616e-001	5.460539e+001	-5.554440e+001	1.614303e+002	-2.000000e+002	0.000000e+000	-2.000000e+002	0.000000e+000
83298720.000	-4.779038e-001	5.223739e+001	-5.545869e+001	1.595552e+002	-2.000000e+002	0.000000e+000	-2.000000e+002	0.000000e+000
83948710.000	-4.757322e-001	4.987075e+001	-5.536029e+001	1.578485e+002	-2.000000e+002	0.000000e+000	-2.000000e+002	0.000000e+000
84598700.000	-4.738619e-001	4.750510e+001	-5.527062e+001	1.560205e+002	-2.000000e+002	0.000000e+000	-2.000000e+002	0.000000e+000
85248690.000	-4.722067e-001	4.514012e+001	-5.520266e+001	1.549131e+002	-2.000000e+002	0.000000e+000	-2.000000e+002	0.000000e+000
85898680.000	-4.700315e-001	4.278020e+001	-5.508761e+001	1.522059e+002	-2.000000e+002	0.000000e+000	-2.000000e+002	0.000000e+000
86548670.000	-4.677773e-001	4.042414e+001	-5.492147e+001	1.507356e+002	-2.000000e+002	0.000000e+000	-2.000000e+002	0.000000e+000
87198660.000	-4.651827e-001	3.806832e+001	-5.485084e+001	1.489729e+002	-2.000000e+002	0.000000e+000	-2.000000e+002	0.000000e+000
87848650.000	-4.627818e-001	3.571451e+001	-5.481213e+001	1.470517e+002	-2.000000e+002	0.000000e+000	-2.000000e+002	0.000000e+000
88498640.000	-4.607227e-001	3.336394e+001	-5.465020e+001	1.456959e+002	-2.000000e+002	0.000000e+000	-2.000000e+002	0.000000e+000
89148630.000	-4.587541e-001	3.101345e+001	-5.445055e+001	1.440334e+002	-2.000000e+002	0.000000e+000	-2.000000e+002	0.000000e+000
89798620.000	-4.561267e-001	2.866483e+001	-5.430483e+001	1.427169e+002	-2.000000e+002	0.000000e+000	-2.000000e+002	0.000000e+000
90448610.000	-4.533365e-001	2.631602e+001	-5.410733e+001	1.408073e+002	-2.000000e+002	0.000000e+000	-2.000000e+002	0.000000e+000
91098600.000	-4.513333e-001	2.396623e+001	-5.390909e+001	1.387323e+002	-2.000000e+002	0.000000e+000	-2.000000e+002	0.000000e+000
91748590.000	-4.485864e-001	2.161997e+001	-5.384145e+001	1.356003e+002	-2.000000e+002	0.000000e+000	-2.000000e+002	0.000000e+000
92398580.000	-4.455593e-001	1.927326e+001	-5.355819e+001	1.338443e+002	-2.000000e+002	0.000000e+000	-2.000000e+002	0.000000e+000
93048570.000	-4.424936e-001	1.692147e+001	-5.349688e+001	1.305617e+002	-2.000000e+002	0.000000e+000	-2.000000e+002	0.000000e+000
93698560.000	-4.399919e-001	1.458056e+001	-5.349069e+001	1.294151e+002	-2.000000e+002	0.000000e+000	-2.000000e+002	0.000000e+000
94348550.000	-4.367349e-001	1.223069e+001	-5.344978e+001	1.275087e+002	-2.000000e+002	0.000000e+000	-2.000000e+002	0.000000e+000
94998540.000	-4.346321e-001	9.888010e+000	-5.341116e+001	1.254730e+002	-2.000000e+002	0.000000e+000	-2.000000e+002	0.000000e+000
95648530.000	-4.315571e-001	7.548043e+000	-5.337093e+001	1.243422e+002	-2.000000e+002	0.000000e+000	-2.000000e+002	0.000000e+000
96298520.000	-4.286696e-001	5.209000e+000	-5.330539e+001	1.227394e+002	-2.000000e+002	0.000000e+000	-2.000000e+002	0.000000e+000
96948510.000	-4.262892e-001	2.870101e+000	-5.324095e+001	1.215546e+002	-2.000000e+002	0.000000e+000	-2.000000e+002	0.000000e+000
97598500.000	-4.242002e-001	5.308502e-001	-5.323652e+001	1.203889e+002	-2.000000e+002	0.000000e+000	-2.000000e+002	0.000000e+000
98248490.000	-4.217117e-001	-1.805075e+000	-5.318572e+001	1.199373e+002	-2.000000e+002	0.000000e+000	-2.000000e+002	0.000000e+000
