!Keysight Technologies,E5063A,MY54503115,A.05.08
!Date: Tue Mar 05 14:32:56 2024
!Data & Calibration Information:
!Freq	S11:NONE(--)	S21:NONE(--)	S12:NONE(--)	S22:NONE(--)
# Hz S dB R 50
100000.000	4.450977e-002	-7.806212e-001	-8.819794e+001	-1.137561e+000	-2.000000e+002	0.000000e+000	-2.000000e+002	0.000000e+000
749990.000	8.920561e-003	-3.045051e+000	-8.479471e+001	-1.355113e+002	-2.000000e+002	0.000000e+000	-2.000000e+002	0.000000e+000
1399980.000	1.078707e-002	-5.364739e+000	-8.398705e+001	-1.791598e+002	-2.000000e+002	0.000000e+000	-2.000000e+002	0.000000e+000
2049970.000	1.028424e-002	-7.690520e+000	-7.962804e+001	1.274126e+002	-2.000000e+002	0.000000e+000	-2.000000e+002	0.000000e+000
2699960.000	1.098844e-002	-1.001933e+001	-7.907446e+001	9.170293e+001	-2.000000e+002	0.000000e+000	-2.000000e+002	0.000000e+000
3349950.000	1.396196e-002	-1.235488e+001	-7.686695e+001	8.416307e+001	-2.000000e+002	0.000000e+000	-2.000000e+002	0.000000e+000
3999940.000	1.264026e-002	-1.468759e+001	-7.598821e+001	7.057748e+001	-2.000000e+002	0.000000e+000	-2.000000e+002	0.000000e+000
4649930.000	1.667324e-002	-1.702397e+001	-7.368694e+001	8.106473e+001	-2.000000e+002	0.000000e+000	-2.000000e+002	0.000000e+000
5299920.000	1.430263e-002	-1.935537e+001	-7.308651e+001	8.141108e+001	-2.000000e+002	0.000000e+000	-2.000000e+002	0.000000e+000
5949910.000	1.484467e-002	-2.170381e+001	-7.276134e+001	7.659630e+001	-2.000000e+002	0.000000e+000	-2.000000e+002	0.000000e+000
6599900.000	1.430679e-002	-2.404093e+001	-7.100279e+001	6.794322e+001	-2.000000e+002	0.000000e+000	-2.000000e+002	0.000000e+000
7249890.000	1.380936e-002	-2.637755e+001	-6.933783e+001	6.186364e+001	-2.000000e+002	0.000000e+000	-2.000000e+002	0.000000e+000
7899880.000	1.426841e-002	-2.872328e+001	-6.883742e+001	6.366823e+001	-2.000000e+002	0.000000e+000	-2.000000e+002	0.000000e+000
8549870.000	1.834350e-002	-3.107009e+001	-6.848904e+001	6.233280e+001	-2.000000e+002	0.000000e+000	-2.000000e+002	0.000000e+000
9199860.000	1.714762e-002	-3.341065e+001	-6.760447e+001	5.982858e+001	-2.000000e+002	0.000000e+000	-2.000000e+002	0.000000e+000
9849850.000	1.648176e-002	-3.575338e+001	-6.717303e+001	5.753355e+001	-2.000000e+002	0.000000e+000	-2.000000e+002	0.000000e+000
10499840.000	1.345374e-002	-3.809705e+001	-6.656923e+001	5.555032e+001	-2.000000e+002	0.000000e+000	-2.000000e+002	0.000000e+000
11149830.000	1.080991e-002	-4.043705e+001	-6.578970e+001	5.184361e+001	-2.000000e+002	0.000000e+000	-2.000000e+002	0.000000e+000
11799820.000	9.391302e-003	-4.278047e+001	-6.540229e+001	5.029629e+001	-2.000000e+002	0.000000e+000	-2.000000e+002	0.000000e+000
12449810.000	9.433220e-003	-4.513416e+001	-6.491673e+001	4.793374e+001	-2.000000e+002	0.000000e+000	-2.000000e+002	0.000000e+000
13099800.000	1.064156e-002	-4.748201e+001	-6.448737e+001	4.580831e+001	-2.000000e+002	0.000000e+000	-2.000000e+002	0.000000e+000
13749790.000	8.824612e-003	-4.982703e+001	-6.392392e+001	4.302458e+001	-2.000000e+002	0.000000e+000	-2.000000e+002	0.000000e+000
14399780.000	5.820434e-003	-5.218926e+001	-6.345501e+001	4.154896e+001	-2.000000e+002	0.000000e+000	-2.000000e+002	0.000000e+000
15049770.000	6.039840e-003	-5.454180e+001	-6.302737e+001	3.896407e+001	-2.000000e+002	0.000000e+000	-2.000000e+002	0.000000e+000
15699760.000	4.690738e-003	-5.688644e+001	-6.272148e+001	3.601461e+001	-2.000000e+002	0.000000e+000	-2.000000e+002	0.000000e+000
16349750.000	3.436736e-003	-5.924350e+001	-6.220477e+001	3.382278e+001	-2.000000e+002	0.000000e+000	-2.000000e+002	0.000000e+000
16999740.000	1.491450e-003	-6.161321e+001	-6.184027e+001	3.096775e+001	-2.000000e+002	0.000000e+000	-2.000000e+002	0.000000e+000
17649730.000	6.048500e-003	-6.398982e+001	-6.143473e+001	2.858642e+001	-2.000000e+002	0.000000e+000	-2.000000e+002	0.000000e+000
18299720.000	6.758224e-003	-6.636577e+001	-6.107407e+001	2.615998e+001	-2.000000e+002	0.000000e+000	-2.000000e+002	0.000000e+000
18949710.000	3.421032e-003	-6.874175e+001	-6.075094e+001	2.422685e+001	-2.000000e+002	0.000000e+000	-2.000000e+002	0.000000e+000
19599700.000	-4.940346e-003	-7.111345e+001	-6.039423e+001	2.101158e+001	-2.000000e+002	0.000000e+000	-2.000000e+002	0.000000e+000
20249690.000	-1.139080e-002	-7.349360e+001	-6.013188e+001	1.842409e+001	-2.000000e+002	0.000000e+000	-2.000000e+002	0.000000e+000
20899680.000	-1.525726e-002	-7.589855e+001	-5.973114e+001	1.628501e+001	-2.000000e+002	0.000000e+000	-2.000000e+002	0.000000e+000
21549670.000	-1.975048e-002	-7.828710e+001	-5.941450e+001	1.418600e+001	-2.000000e+002	0.000000e+000	-2.000000e+002	0.000000e+000
22199660.000	-2.489113e-002	-8.066212e+001	-5.913854e+001	1.201796e+001	-2.000000e+002	0.000000e+000	-2.000000e+002	0.000000e+000
22849650.000	-2.875314e-002	-8.302252e+001	-5.887556e+001	9.859344e+000	-2.000000e+002	0.000000e+000	-2.000000e+002	0.000000e+000
23499640.000	-3.494481e-002	-8.541260e+001	-5.857107e+001	7.549939e+000	-2.000000e+002	0.000000e+000	-2.000000e+002	0.000000e+000
24149630.000	-4.141843e-002	-8.781102e+001	-5.819324e+001	5.782527e+000	-2.000000e+002	0.000000e+000	-2.000000e+002	0.000000e+000
24799620.000	-4.710038e-002	-9.020000e+001	-5.786110e+001	3.647984e+000	-2.000000e+002	0.000000e+000	-2.000000e+002	0.000000e+000
25449610.000	-5.123357e-002	-9.258628e+001	-5.752695e+001	1.706215e+000	-2.000000e+002	0.000000e+000	-2.000000e+002	0.000000e+000
26099600.000	-5.760732e-002	-9.497854e+001	-5.712974e+001	-2.517394e-001	-2.000000e+002	0.000000e+000	-2.000000e+002	0.000000e+000
26749590.000	-6.431208e-002	-9.737861e+001	-5.671507e+001	-2.953002e+000	-2.000000e+002	0.000000e+000	-2.000000e+002	0.000000e+000
27399580.000	-7.068029e-002	-9.978158e+001	-5.641927e+001	-6.555363e+000	-2.000000e+002	0.000000e+000	-2.000000e+002	0.000000e+000
28049570.000	-7.645942e-002	-1.021827e+002	-5.613832e+001	-8.983123e+000	-2.000000e+002	0.000000e+000	-2.000000e+002	0.000000e+000
28699560.000	-8.336595e-002	-1.045849e+002	-5.590057e+001	-1.161779e+001	-2.000000e+002	0.000000e+000	-2.000000e+002	0.000000e+000
29349550.000	-9.046563e-002	-1.069959e+002	-5.564107e+001	-1.397988e+001	-2.000000e+002	0.000000e+000	-2.000000e+002	0.000000e+000
29999540.000	-9.707558e-002	-1.094077e+002	-5.552931e+001	-1.549196e+001	-2.000000e+002	0.000000e+000	-2.000000e+002	0.000000e+000
30649530.000	-1.045068e-001	-1.118283e+002	-5.534227e+001	-1.641678e+001	-2.000000e+002	0.000000e+000	-2.000000e+002	0.000000e+000
31299520.000	-1.118089e-001	-1.142477e+002	-5.503195e+001	-1.640184e+001	-2.000000e+002	0.000000e+000	-2.000000e+002	0.000000e+000
31949510.000	-1.196519e-001	-1.166739e+002	-5.453202e+001	-1.674769e+001	-2.000000e+002	0.000000e+000	-2.000000e+002	0.000000e+000
32599500.000	-1.284545e-001	-1.191002e+002	-5.389927e+001	-1.775685e+001	-2.000000e+002	0.000000e+000	-2.000000e+002	0.000000e+000
33249490.000	-1.369388e-001	-1.215257e+002	-5.335852e+001	-1.909442e+001	-2.000000e+002	0.000000e+000	-2.000000e+002	0.000000e+000
33899480.000	-1.453540e-001	-1.239546e+002	-5.260379e+001	-2.047505e+001	-2.000000e+002	0.000000e+000	-2.000000e+002	0.000000e+000
34549470.000	-1.541611e-001	-1.263844e+002	-5.203888e+001	-2.327972e+001	-2.000000e+002	0.000000e+000	-2.000000e+002	0.000000e+000
35199460.000	-1.633979e-001	-1.288262e+002	-5.153759e+001	-2.386053e+001	-2.000000e+002	0.000000e+000	-2.000000e+002	0.000000e+000
35849450.000	-1.735729e-001	-1.312661e+002	-5.066942e+001	-2.368533e+001	-2.000000e+002	0.000000e+000	-2.000000e+002	0.000000e+000
36499440.000	-1.835194e-001	-1.337032e+002	-4.940969e+001	-2.552257e+001	-2.000000e+002	0.000000e+000	-2.000000e+002	0.000000e+000
37149430.000	-1.928593e-001	-1.361452e+002	-4.825949e+001	-2.937339e+001	-2.000000e+002	0.000000e+000	-2.000000e+002	0.000000e+000
37799420.000	-2.021430e-001	-1.385939e+002	-4.718528e+001	-3.383792e+001	-2.000000e+002	0.000000e+000	-2.000000e+002	0.000000e+000
38449410.000	-2.111342e-001	-1.410445e+002	-4.606857e+001	-3.841645e+001	-2.000000e+002	0.000000e+000	-2.000000e+002	0.000000e+000
39099400.000	-2.200237e-001	-1.435072e+002	-4.496387e+001	-4.413183e+001	-2.000000e+002	0.000000e+000	-2.000000e+002	0.000000e+000
39749390.000	-2.288573e-001	-1.459856e+002	-4.393634e+001	-4.988899e+001	-2.000000e+002	0.000000e+000	-2.000000e+002	0.000000e+000
40399380.000	-2.393162e-001	-1.484831e+002	-4.285080e+001	-5.515265e+001	-2.000000e+002	0.000000e+000	-2.000000e+002	0.000000e+000
41049370.000	-2.522389e-001	-1.509988e+002	-4.149230e+001	-6.016779e+001	-2.000000e+002	0.000000e+000	-2.000000e+002	0.000000e+000
41699360.000	-2.681479e-001	-1.535429e+002	-3.978263e+001	-6.615751e+001	-2.000000e+002	0.000000e+000	-2.000000e+002	0.000000e+000
42349350.000	-2.900868e-001	-1.561393e+002	-3.765669e+001	-7.386181e+001	-2.000000e+002	0.000000e+000	-2.000000e+002	0.000000e+000
42999340.000	-3.302423e-001	-1.588262e+002	-3.486755e+001	-8.497235e+001	-2.000000e+002	0.000000e+000	-2.000000e+002	0.000000e+000
43649330.000	-4.345769e-001	-1.616080e+002	-3.110692e+001	-1.048134e+002	-2.000000e+002	0.000000e+000	-2.000000e+002	0.000000e+000
44299320.000	-6.859168e-001	-1.631804e+002	-2.745000e+001	-1.503757e+002	-2.000000e+002	0.000000e+000	-2.000000e+002	0.000000e+000
44949310.000	-5.146729e-001	-1.637895e+002	-3.016021e+001	1.537035e+002	-2.000000e+002	0.000000e+000	-2.000000e+002	0.000000e+000
45599300.000	-3.797768e-001	-1.665140e+002	-3.475709e+001	1.280790e+002	-2.000000e+002	0.000000e+000	-2.000000e+002	0.000000e+000
46249290.000	-3.449912e-001	-1.692478e+002	-3.833777e+001	1.143840e+002	-2.000000e+002	0.000000e+000	-2.000000e+002	0.000000e+000
46899280.000	-3.364669e-001	-1.718706e+002	-4.123079e+001	1.048088e+002	-2.000000e+002	0.000000e+000	-2.000000e+002	0.000000e+000
47549270.000	-3.362281e-001	-1.744278e+002	-4.370341e+001	9.704327e+001	-2.000000e+002	0.000000e+000	-2.000000e+002	0.000000e+000
48199260.000	-3.387613e-001	-1.769457e+002	-4.595608e+001	9.017715e+001	-2.000000e+002	0.000000e+000	-2.000000e+002	0.000000e+000
48849250.000	-3.427626e-001	-1.794391e+002	-4.807095e+001	8.399928e+001	-2.000000e+002	0.000000e+000	-2.000000e+002	0.000000e+000
49499240.000	-3.465027e-001	1.780763e+002	-5.018726e+001	7.880123e+001	-2.000000e+002	0.000000e+000	-2.000000e+002	0.000000e+000
50149230.000	-3.501351e-001	1.755964e+002	-5.215786e+001	7.509454e+001	-2.000000e+002	0.000000e+000	-2.000000e+002	0.000000e+000
50799220.000	-3.549176e-001	1.731213e+002	-5.384117e+001	7.156357e+001	-2.000000e+002	0.000000e+000	-2.000000e+002	0.000000e+000
51449210.000	-3.599328e-001	1.706429e+002	-5.545467e+001	6.751589e+001	-2.000000e+002	0.000000e+000	-2.000000e+002	0.000000e+000
52099200.000	-3.651407e-001	1.681727e+002	-5.710664e+001	6.259674e+001	-2.000000e+002	0.000000e+000	-2.000000e+002	0.000000e+000
52749190.000	-3.705757e-001	1.657081e+002	-5.880904e+001	5.751811e+001	-2.000000e+002	0.000000e+000	-2.000000e+002	0.000000e+000
53399180.000	-3.758117e-001	1.632452e+002	-6.054040e+001	5.211271e+001	-2.000000e+002	0.000000e+000	-2.000000e+002	0.000000e+000
54049170.000	-3.812801e-001	1.607821e+002	-6.208782e+001	4.642093e+001	-2.000000e+002	0.000000e+000	-2.000000e+002	0.000000e+000
54699160.000	-3.869522e-001	1.583255e+002	-6.360442e+001	3.904773e+001	-2.000000e+002	0.000000e+000	-2.000000e+002	0.000000e+000
55349150.000	-3.924176e-001	1.558665e+002	-6.502755e+001	2.881278e+001	-2.000000e+002	0.000000e+000	-2.000000e+002	0.000000e+000
55999140.000	-3.977709e-001	1.534140e+002	-6.657718e+001	1.439706e+001	-2.000000e+002	0.000000e+000	-2.000000e+002	0.000000e+000
56649130.000	-4.029608e-001	1.509639e+002	-6.767370e+001	-1.108249e+000	-2.000000e+002	0.000000e+000	-2.000000e+002	0.000000e+000
57299120.000	-4.083637e-001	1.485122e+002	-6.829275e+001	-1.819804e+001	-2.000000e+002	0.000000e+000	-2.000000e+002	0.000000e+000
57949110.000	-4.133010e-001	1.460660e+002	-6.824448e+001	-3.680025e+001	-2.000000e+002	0.000000e+000	-2.000000e+002	0.000000e+000
58599100.000	-4.179573e-001	1.436162e+002	-6.780159e+001	-5.255989e+001	-2.000000e+002	0.000000e+000	-2.000000e+002	0.000000e+000
59249090.000	-4.229380e-001	1.411747e+002	-6.714014e+001	-6.644480e+001	-2.000000e+002	0.000000e+000	-2.000000e+002	0.000000e+000
59899080.000	-4.272141e-001	1.387341e+002	-6.642690e+001	-7.602231e+001	-2.000000e+002	0.000000e+000	-2.000000e+002	0.000000e+000
60549070.000	-4.322303e-001	1.362955e+002	-6.546281e+001	-8.181860e+001	-2.000000e+002	0.000000e+000	-2.000000e+002	0.000000e+000
61199060.000	-4.371403e-001	1.338610e+002	-6.441353e+001	-8.763016e+001	-2.000000e+002	0.000000e+000	-2.000000e+002	0.000000e+000
61849050.000	-4.416536e-001	1.314282e+002	-6.314537e+001	-9.341758e+001	-2.000000e+002	0.000000e+000	-2.000000e+002	0.000000e+000
62499040.000	-4.453738e-001	1.290003e+002	-6.192651e+001	-9.986222e+001	-2.000000e+002	0.000000e+000	-2.000000e+002	0.000000e+000
63149030.000	-4.487240e-001	1.265718e+002	-6.096226e+001	-1.069898e+002	-2.000000e+002	0.000000e+000	-2.000000e+002	0.000000e+000
63799020.000	-4.523320e-001	1.241493e+002	-6.033452e+001	-1.144220e+002	-2.000000e+002	0.000000e+000	-2.000000e+002	0.000000e+000
64449010.000	-4.559518e-001	1.217266e+002	-5.984612e+001	-1.211368e+002	-2.000000e+002	0.000000e+000	-2.000000e+002	0.000000e+000
65099000.000	-4.581125e-001	1.193031e+002	-5.951314e+001	-1.269547e+002	-2.000000e+002	0.000000e+000	-2.000000e+002	0.000000e+000
65748990.000	-4.601768e-001	1.168768e+002	-5.915738e+001	-1.317646e+002	-2.000000e+002	0.000000e+000	-2.000000e+002	0.000000e+000
66398980.000	-4.629278e-001	1.144564e+002	-5.904046e+001	-1.366180e+002	-2.000000e+002	0.000000e+000	-2.000000e+002	0.000000e+000
67048970.000	-4.654031e-001	1.120351e+002	-5.883319e+001	-1.400934e+002	-2.000000e+002	0.000000e+000	-2.000000e+002	0.000000e+000
67698960.000	-4.679221e-001	1.096226e+002	-5.856655e+001	-1.444488e+002	-2.000000e+002	0.000000e+000	-2.000000e+002	0.000000e+000
68348950.000	-4.688737e-001	1.072079e+002	-5.838362e+001	-1.474636e+002	-2.000000e+002	0.000000e+000	-2.000000e+002	0.000000e+000
68998940.000	-4.716294e-001	1.047939e+002	-5.825572e+001	-1.506387e+002	-2.000000e+002	0.000000e+000	-2.000000e+002	0.000000e+000
69648930.000	-4.734391e-001	1.023825e+002	-5.816525e+001	-1.541308e+002	-2.000000e+002	0.000000e+000	-2.000000e+002	0.000000e+000
70298920.000	-4.735997e-001	9.996325e+001	-5.807285e+001	-1.562590e+002	-2.000000e+002	0.000000e+000	-2.000000e+002	0.000000e+000
70948910.000	-4.760571e-001	9.755641e+001	-5.795170e+001	-1.581968e+002	-2.000000e+002	0.000000e+000	-2.000000e+002	0.000000e+000
71598900.000	-4.768939e-001	9.515035e+001	-5.777932e+001	-1.604488e+002	-2.000000e+002	0.000000e+000	-2.000000e+002	0.000000e+000
72248890.000	-4.786429e-001	9.275027e+001	-5.756978e+001	-1.621671e+002	-2.000000e+002	0.000000e+000	-2.000000e+002	0.000000e+000
72898880.000	-4.797170e-001	9.034983e+001	-5.730574e+001	-1.648380e+002	-2.000000e+002	0.000000e+000	-2.000000e+002	0.000000e+000
73548870.000	-4.809390e-001	8.795542e+001	-5.706296e+001	-1.674120e+002	-2.000000e+002	0.000000e+000	-2.000000e+002	0.000000e+000
74198860.000	-4.810940e-001	8.555868e+001	-5.684534e+001	-1.702891e+002	-2.000000e+002	0.000000e+000	-2.000000e+002	0.000000e+000
74848850.000	-4.823080e-001	8.316674e+001	-5.665256e+001	-1.730407e+002	-2.000000e+002	0.000000e+000	-2.000000e+002	0.000000e+000
75498840.000	-4.819870e-001	8.077698e+001	-5.649374e+001	-1.761731e+002	-2.000000e+002	0.000000e+000	-2.000000e+002	0.000000e+000
76148830.000	-4.816600e-001	7.838560e+001	-5.642090e+001	-1.791226e+002	-2.000000e+002	0.000000e+000	-2.000000e+002	0.000000e+000
76798820.000	-4.810790e-001	7.599693e+001	-5.643214e+001	1.783911e+002	-2.000000e+002	0.000000e+000	-2.000000e+002	0.000000e+000
77448810.000	-4.826326e-001	7.362544e+001	-5.640575e+001	1.762948e+002	-2.000000e+002	0.000000e+000	-2.000000e+002	0.000000e+000
78098800.000	-4.828077e-001	7.124411e+001	-5.632919e+001	1.741115e+002	-2.000000e+002	0.000000e+000	-2.000000e+002	0.000000e+000
78748790.000	-4.821056e-001	6.886303e+001	-5.626568e+001	1.720574e+002	-2.000000e+002	0.000000e+000	-2.000000e+002	0.000000e+000
79398780.000	-4.814373e-001	6.648721e+001	-5.617671e+001	1.703975e+002	-2.000000e+002	0.000000e+000	-2.000000e+002	0.000000e+000
80048770.000	-4.794439e-001	6.410597e+001	-5.606444e+001	1.684024e+002	-2.000000e+002	0.000000e+000	-2.000000e+002	0.000000e+000
80698760.000	-4.783249e-001	6.173028e+001	-5.590547e+001	1.661016e+002	-2.000000e+002	0.000000e+000	-2.000000e+002	0.000000e+000
81348750.000	-4.768803e-001	5.935924e+001	-5.583606e+001	1.644400e+002	-2.000000e+002	0.000000e+000	-2.000000e+002	0.000000e+000
81998740.000	-4.755050e-001	5.698973e+001	-5.574782e+001	1.620655e+002	-2.000000e+002	0.000000e+000	-2.000000e+002	0.000000e+000
82648730.000	-4.751514e-001	5.463199e+001	-5.567331e+001	1.601879e+002	-2.000000e+002	0.000000e+000	-2.000000e+002	0.000000e+000
83298720.000	-4.738983e-001	5.226635e+001	-5.561559e+001	1.583236e+002	-2.000000e+002	0.000000e+000	-2.000000e+002	0.000000e+000
83948710.000	-4.719179e-001	4.989516e+001	-5.557187e+001	1.562808e+002	-2.000000e+002	0.000000e+000	-2.000000e+002	0.000000e+000
84598700.000	-4.702240e-001	4.752768e+001	-5.548935e+001	1.544738e+002	-2.000000e+002	0.000000e+000	-2.000000e+002	0.000000e+000
85248690.000	-4.684442e-001	4.516515e+001	-5.538518e+001	1.517469e+002	-2.000000e+002	0.000000e+000	-2.000000e+002	0.000000e+000
85898680.000	-4.663041e-001	4.280547e+001	-5.523201e+001	1.516428e+002	-2.000000e+002	0.000000e+000	-2.000000e+002	0.000000e+000
86548670.000	-4.643813e-001	4.044883e+001	-5.512829e+001	1.499257e+002	-2.000000e+002	0.000000e+000	-2.000000e+002	0.000000e+000
87198660.000	-4.620698e-001	3.809249e+001	-5.506637e+001	1.481202e+002	-2.000000e+002	0.000000e+000	-2.000000e+002	0.000000e+000
87848650.000	-4.596660e-001	3.573918e+001	-5.493197e+001	1.464193e+002	-2.000000e+002	0.000000e+000	-2.000000e+002	0.000000e+000
88498640.000	-4.575230e-001	3.338716e+001	-5.484967e+001	1.450104e+002	-2.000000e+002	0.000000e+000	-2.000000e+002	0.000000e+000
89148630.000	-4.552959e-001	3.103903e+001	-5.469742e+001	1.434879e+002	-2.000000e+002	0.000000e+000	-2.000000e+002	0.000000e+000
89798620.000	-4.528364e-001	2.868815e+001	-5.453388e+001	1.419144e+002	-2.000000e+002	0.000000e+000	-2.000000e+002	0.000000e+000
90448610.000	-4.506988e-001	2.634184e+001	-5.431046e+001	1.402632e+002	-2.000000e+002	0.000000e+000	-2.000000e+002	0.000000e+000
91098600.000	-4.484034e-001	2.399063e+001	-5.409961e+001	1.385195e+002	-2.000000e+002	0.000000e+000	-2.000000e+002	0.000000e+000
91748590.000	-4.458392e-001	2.164477e+001	-5.394234e+001	1.362607e+002	-2.000000e+002	0.000000e+000	-2.000000e+002	0.000000e+000
92398580.000	-4.432260e-001	1.929866e+001	-5.374597e+001	1.339324e+002	-2.000000e+002	0.000000e+000	-2.000000e+002	0.000000e+000
93048570.000	-4.400763e-001	1.695249e+001	-5.370511e+001	1.310313e+002	-2.000000e+002	0.000000e+000	-2.000000e+002	0.000000e+000
93698560.000	-4.373568e-001	1.460321e+001	-5.365102e+001	1.290746e+002	-2.000000e+002	0.000000e+000	-2.000000e+002	0.000000e+000
94348550.000	-4.339218e-001	1.225848e+001	-5.359535e+001	1.271449e+002	-2.000000e+002	0.000000e+000	-2.000000e+002	0.000000e+000
94998540.000	-4.318597e-001	9.914841e+000	-5.365663e+001	1.258963e+002	-2.000000e+002	0.000000e+000	-2.000000e+002	0.000000e+000
95648530.000	-4.290445e-001	7.578735e+000	-5.354183e+001	1.235195e+002	-2.000000e+002	0.000000e+000	-2.000000e+002	0.000000e+000
96298520.000	-4.256815e-001	5.236559e+000	-5.342224e+001	1.219950e+002	-2.000000e+002	0.000000e+000	-2.000000e+002	0.000000e+000
96948510.000	-4.237123e-001	2.897064e+000	-5.341833e+001	1.205670e+002	-2.000000e+002	0.000000e+000	-2.000000e+002	0.000000e+000
97598500.000	-4.211597e-001	5.590498e-001	-5.341927e+001	1.194308e+002	-2.000000e+002	0.000000e+000	-2.000000e+002	0.000000e+000
98248490.000	-4.184752e-001	-1.777463e+000	-5.341065e+001	1.187830e+002	-2.000000e+002	0.000000e+000	-2.000000e+002	0.000000e+000
