!Keysight Technologies,E5063A,MY54503115,A.05.08
!Date: Mon Mar 04 15:55:38 2024
!Data & Calibration Information:
!Freq	S11:NONE(--)	S21:NONE(--)	S12:NONE(--)	S22:NONE(--)
# Hz S dB R 50
100000.000	4.689173e-002	-9.149538e-001	-8.242708e+001	5.380833e+001	-2.000000e+002	0.000000e+000	-2.000000e+002	0.000000e+000
749990.000	3.001824e-003	-3.070549e+000	-9.096731e+001	-7.545912e+001	-2.000000e+002	0.000000e+000	-2.000000e+002	0.000000e+000
1399980.000	5.177101e-003	-5.377859e+000	-9.280404e+001	1.729787e+002	-2.000000e+002	0.000000e+000	-2.000000e+002	0.000000e+000
2049970.000	4.106969e-003	-7.698880e+000	-7.993024e+001	1.208052e+002	-2.000000e+002	0.000000e+000	-2.000000e+002	0.000000e+000
2699960.000	5.058758e-003	-1.002754e+001	-7.603104e+001	7.698282e+001	-2.000000e+002	0.000000e+000	-2.000000e+002	0.000000e+000
3349950.000	8.029936e-003	-1.236176e+001	-7.548084e+001	8.343400e+001	-2.000000e+002	0.000000e+000	-2.000000e+002	0.000000e+000
3999940.000	6.760407e-003	-1.469276e+001	-7.817222e+001	7.323374e+001	-2.000000e+002	0.000000e+000	-2.000000e+002	0.000000e+000
4649930.000	8.708879e-003	-1.703810e+001	-7.308449e+001	8.139195e+001	-2.000000e+002	0.000000e+000	-2.000000e+002	0.000000e+000
5299920.000	8.110868e-003	-1.936723e+001	-7.330263e+001	7.584058e+001	-2.000000e+002	0.000000e+000	-2.000000e+002	0.000000e+000
5949910.000	7.944858e-003	-2.170511e+001	-7.229189e+001	7.558908e+001	-2.000000e+002	0.000000e+000	-2.000000e+002	0.000000e+000
6599900.000	8.315339e-003	-2.404278e+001	-7.217521e+001	6.755755e+001	-2.000000e+002	0.000000e+000	-2.000000e+002	0.000000e+000
7249890.000	8.259318e-003	-2.638614e+001	-7.216068e+001	6.110180e+001	-2.000000e+002	0.000000e+000	-2.000000e+002	0.000000e+000
7899880.000	7.471916e-003	-2.873270e+001	-7.000164e+001	5.881167e+001	-2.000000e+002	0.000000e+000	-2.000000e+002	0.000000e+000
8549870.000	1.156233e-002	-3.107982e+001	-6.898861e+001	6.396442e+001	-2.000000e+002	0.000000e+000	-2.000000e+002	0.000000e+000
9199860.000	1.028970e-002	-3.342298e+001	-6.825287e+001	6.224408e+001	-2.000000e+002	0.000000e+000	-2.000000e+002	0.000000e+000
9849850.000	9.875876e-003	-3.576857e+001	-6.757847e+001	5.950037e+001	-2.000000e+002	0.000000e+000	-2.000000e+002	0.000000e+000
10499840.000	8.262003e-003	-3.810872e+001	-6.709805e+001	5.718762e+001	-2.000000e+002	0.000000e+000	-2.000000e+002	0.000000e+000
11149830.000	5.432578e-003	-4.044824e+001	-6.671333e+001	5.542059e+001	-2.000000e+002	0.000000e+000	-2.000000e+002	0.000000e+000
11799820.000	4.206155e-003	-4.279563e+001	-6.576463e+001	5.295295e+001	-2.000000e+002	0.000000e+000	-2.000000e+002	0.000000e+000
12449810.000	4.380101e-003	-4.514866e+001	-6.539359e+001	4.902838e+001	-2.000000e+002	0.000000e+000	-2.000000e+002	0.000000e+000
13099800.000	5.685930e-003	-4.750406e+001	-6.500191e+001	4.740187e+001	-2.000000e+002	0.000000e+000	-2.000000e+002	0.000000e+000
13749790.000	3.023456e-003	-4.985207e+001	-6.436916e+001	4.488404e+001	-2.000000e+002	0.000000e+000	-2.000000e+002	0.000000e+000
14399780.000	6.003179e-004	-5.221406e+001	-6.405433e+001	4.255743e+001	-2.000000e+002	0.000000e+000	-2.000000e+002	0.000000e+000
15049770.000	-2.124933e-004	-5.457590e+001	-6.364288e+001	4.128722e+001	-2.000000e+002	0.000000e+000	-2.000000e+002	0.000000e+000
15699760.000	-1.741903e-003	-5.691812e+001	-6.321947e+001	3.859005e+001	-2.000000e+002	0.000000e+000	-2.000000e+002	0.000000e+000
16349750.000	-3.188012e-003	-5.927515e+001	-6.279069e+001	3.559467e+001	-2.000000e+002	0.000000e+000	-2.000000e+002	0.000000e+000
16999740.000	-6.585529e-003	-6.164808e+001	-6.241057e+001	3.356874e+001	-2.000000e+002	0.000000e+000	-2.000000e+002	0.000000e+000
17649730.000	-2.881295e-003	-6.402110e+001	-6.215763e+001	3.142311e+001	-2.000000e+002	0.000000e+000	-2.000000e+002	0.000000e+000
18299720.000	-3.073796e-003	-6.639166e+001	-6.160632e+001	2.986229e+001	-2.000000e+002	0.000000e+000	-2.000000e+002	0.000000e+000
18949710.000	-6.991604e-003	-6.875936e+001	-6.124026e+001	2.751803e+001	-2.000000e+002	0.000000e+000	-2.000000e+002	0.000000e+000
19599700.000	-1.537461e-002	-7.112690e+001	-6.088853e+001	2.576839e+001	-2.000000e+002	0.000000e+000	-2.000000e+002	0.000000e+000
20249690.000	-2.151600e-002	-7.349759e+001	-6.037472e+001	2.284131e+001	-2.000000e+002	0.000000e+000	-2.000000e+002	0.000000e+000
20899680.000	-2.490681e-002	-7.589691e+001	-5.999909e+001	2.027723e+001	-2.000000e+002	0.000000e+000	-2.000000e+002	0.000000e+000
21549670.000	-2.874891e-002	-7.828295e+001	-5.961043e+001	1.764258e+001	-2.000000e+002	0.000000e+000	-2.000000e+002	0.000000e+000
22199660.000	-3.294178e-002	-8.065544e+001	-5.934019e+001	1.530390e+001	-2.000000e+002	0.000000e+000	-2.000000e+002	0.000000e+000
22849650.000	-3.664674e-002	-8.301468e+001	-5.904893e+001	1.298763e+001	-2.000000e+002	0.000000e+000	-2.000000e+002	0.000000e+000
23499640.000	-4.219485e-002	-8.540249e+001	-5.871233e+001	1.078853e+001	-2.000000e+002	0.000000e+000	-2.000000e+002	0.000000e+000
24149630.000	-4.804419e-002	-8.780003e+001	-5.826040e+001	9.305663e+000	-2.000000e+002	0.000000e+000	-2.000000e+002	0.000000e+000
24799620.000	-5.292432e-002	-9.018860e+001	-5.782173e+001	7.039017e+000	-2.000000e+002	0.000000e+000	-2.000000e+002	0.000000e+000
25449610.000	-5.673389e-002	-9.257567e+001	-5.743475e+001	4.698655e+000	-2.000000e+002	0.000000e+000	-2.000000e+002	0.000000e+000
26099600.000	-6.257028e-002	-9.496940e+001	-5.703101e+001	2.362404e+000	-2.000000e+002	0.000000e+000	-2.000000e+002	0.000000e+000
26749590.000	-6.897135e-002	-9.736837e+001	-5.651881e+001	-8.340922e-001	-2.000000e+002	0.000000e+000	-2.000000e+002	0.000000e+000
27399580.000	-7.495451e-002	-9.977023e+001	-5.630464e+001	-4.260242e+000	-2.000000e+002	0.000000e+000	-2.000000e+002	0.000000e+000
28049570.000	-8.066154e-002	-1.021739e+002	-5.599011e+001	-7.549699e+000	-2.000000e+002	0.000000e+000	-2.000000e+002	0.000000e+000
28699560.000	-8.721981e-002	-1.045798e+002	-5.575749e+001	-9.947574e+000	-2.000000e+002	0.000000e+000	-2.000000e+002	0.000000e+000
29349550.000	-9.413421e-002	-1.069897e+002	-5.551600e+001	-1.319706e+001	-2.000000e+002	0.000000e+000	-2.000000e+002	0.000000e+000
29999540.000	-1.011104e-001	-1.094037e+002	-5.544105e+001	-1.417001e+001	-2.000000e+002	0.000000e+000	-2.000000e+002	0.000000e+000
30649530.000	-1.082526e-001	-1.118251e+002	-5.512865e+001	-1.523835e+001	-2.000000e+002	0.000000e+000	-2.000000e+002	0.000000e+000
31299520.000	-1.153865e-001	-1.142458e+002	-5.481350e+001	-1.567196e+001	-2.000000e+002	0.000000e+000	-2.000000e+002	0.000000e+000
31949510.000	-1.234335e-001	-1.166687e+002	-5.429828e+001	-1.595943e+001	-2.000000e+002	0.000000e+000	-2.000000e+002	0.000000e+000
32599500.000	-1.318700e-001	-1.190946e+002	-5.363018e+001	-1.745573e+001	-2.000000e+002	0.000000e+000	-2.000000e+002	0.000000e+000
33249490.000	-1.402068e-001	-1.215208e+002	-5.302703e+001	-1.935149e+001	-2.000000e+002	0.000000e+000	-2.000000e+002	0.000000e+000
33899480.000	-1.485469e-001	-1.239491e+002	-5.238278e+001	-2.156719e+001	-2.000000e+002	0.000000e+000	-2.000000e+002	0.000000e+000
34549470.000	-1.571836e-001	-1.263807e+002	-5.184141e+001	-2.441600e+001	-2.000000e+002	0.000000e+000	-2.000000e+002	0.000000e+000
35199460.000	-1.660948e-001	-1.288204e+002	-5.130411e+001	-2.546681e+001	-2.000000e+002	0.000000e+000	-2.000000e+002	0.000000e+000
35849450.000	-1.760946e-001	-1.312606e+002	-5.053798e+001	-2.595710e+001	-2.000000e+002	0.000000e+000	-2.000000e+002	0.000000e+000
36499440.000	-1.860706e-001	-1.337010e+002	-4.942736e+001	-2.762827e+001	-2.000000e+002	0.000000e+000	-2.000000e+002	0.000000e+000
37149430.000	-1.956440e-001	-1.361430e+002	-4.833430e+001	-3.105988e+001	-2.000000e+002	0.000000e+000	-2.000000e+002	0.000000e+000
37799420.000	-2.051204e-001	-1.385916e+002	-4.724586e+001	-3.500921e+001	-2.000000e+002	0.000000e+000	-2.000000e+002	0.000000e+000
38449410.000	-2.143143e-001	-1.410403e+002	-4.606453e+001	-3.961014e+001	-2.000000e+002	0.000000e+000	-2.000000e+002	0.000000e+000
39099400.000	-2.232812e-001	-1.435042e+002	-4.497123e+001	-4.530168e+001	-2.000000e+002	0.000000e+000	-2.000000e+002	0.000000e+000
39749390.000	-2.323987e-001	-1.459803e+002	-4.387877e+001	-5.109093e+001	-2.000000e+002	0.000000e+000	-2.000000e+002	0.000000e+000
40399380.000	-2.426196e-001	-1.484766e+002	-4.271994e+001	-5.691928e+001	-2.000000e+002	0.000000e+000	-2.000000e+002	0.000000e+000
41049370.000	-2.549917e-001	-1.509931e+002	-4.139020e+001	-6.270187e+001	-2.000000e+002	0.000000e+000	-2.000000e+002	0.000000e+000
41699360.000	-2.704637e-001	-1.535461e+002	-3.977716e+001	-6.917881e+001	-2.000000e+002	0.000000e+000	-2.000000e+002	0.000000e+000
42349350.000	-2.943552e-001	-1.561628e+002	-3.775360e+001	-7.695081e+001	-2.000000e+002	0.000000e+000	-2.000000e+002	0.000000e+000
42999340.000	-3.427224e-001	-1.588692e+002	-3.501244e+001	-8.768693e+001	-2.000000e+002	0.000000e+000	-2.000000e+002	0.000000e+000
43649330.000	-4.662046e-001	-1.615739e+002	-3.125095e+001	-1.080417e+002	-2.000000e+002	0.000000e+000	-2.000000e+002	0.000000e+000
44299320.000	-6.864856e-001	-1.628227e+002	-2.801247e+001	-1.538332e+002	-2.000000e+002	0.000000e+000	-2.000000e+002	0.000000e+000
44949310.000	-4.950706e-001	-1.637454e+002	-3.062554e+001	1.542810e+002	-2.000000e+002	0.000000e+000	-2.000000e+002	0.000000e+000
45599300.000	-3.702381e-001	-1.664956e+002	-3.488189e+001	1.287681e+002	-2.000000e+002	0.000000e+000	-2.000000e+002	0.000000e+000
46249290.000	-3.379812e-001	-1.692407e+002	-3.830473e+001	1.147779e+002	-2.000000e+002	0.000000e+000	-2.000000e+002	0.000000e+000
46899280.000	-3.310371e-001	-1.718709e+002	-4.106235e+001	1.047684e+002	-2.000000e+002	0.000000e+000	-2.000000e+002	0.000000e+000
47549270.000	-3.321861e-001	-1.744321e+002	-4.340467e+001	9.633188e+001	-2.000000e+002	0.000000e+000	-2.000000e+002	0.000000e+000
48199260.000	-3.362869e-001	-1.769532e+002	-4.553961e+001	8.864409e+001	-2.000000e+002	0.000000e+000	-2.000000e+002	0.000000e+000
48849250.000	-3.415328e-001	-1.794490e+002	-4.761364e+001	8.132486e+001	-2.000000e+002	0.000000e+000	-2.000000e+002	0.000000e+000
49499240.000	-3.463301e-001	1.780682e+002	-4.975988e+001	7.498007e+001	-2.000000e+002	0.000000e+000	-2.000000e+002	0.000000e+000
50149230.000	-3.508673e-001	1.755924e+002	-5.181881e+001	7.079785e+001	-2.000000e+002	0.000000e+000	-2.000000e+002	0.000000e+000
50799220.000	-3.559511e-001	1.731185e+002	-5.361103e+001	6.745582e+001	-2.000000e+002	0.000000e+000	-2.000000e+002	0.000000e+000
51449210.000	-3.609863e-001	1.706440e+002	-5.515151e+001	6.347893e+001	-2.000000e+002	0.000000e+000	-2.000000e+002	0.000000e+000
52099200.000	-3.666772e-001	1.681735e+002	-5.657269e+001	5.913005e+001	-2.000000e+002	0.000000e+000	-2.000000e+002	0.000000e+000
52749190.000	-3.721407e-001	1.657106e+002	-5.806827e+001	5.275720e+001	-2.000000e+002	0.000000e+000	-2.000000e+002	0.000000e+000
53399180.000	-3.778566e-001	1.632485e+002	-5.967793e+001	4.616659e+001	-2.000000e+002	0.000000e+000	-2.000000e+002	0.000000e+000
54049170.000	-3.835925e-001	1.607899e+002	-6.144659e+001	4.056612e+001	-2.000000e+002	0.000000e+000	-2.000000e+002	0.000000e+000
54699160.000	-3.894325e-001	1.583295e+002	-6.294648e+001	3.500382e+001	-2.000000e+002	0.000000e+000	-2.000000e+002	0.000000e+000
55349150.000	-3.949334e-001	1.558736e+002	-6.409864e+001	2.648901e+001	-2.000000e+002	0.000000e+000	-2.000000e+002	0.000000e+000
55999140.000	-4.004696e-001	1.534216e+002	-6.529694e+001	1.576468e+001	-2.000000e+002	0.000000e+000	-2.000000e+002	0.000000e+000
56649130.000	-4.061933e-001	1.509704e+002	-6.604357e+001	2.264968e+000	-2.000000e+002	0.000000e+000	-2.000000e+002	0.000000e+000
57299120.000	-4.115076e-001	1.485231e+002	-6.665954e+001	-1.124149e+001	-2.000000e+002	0.000000e+000	-2.000000e+002	0.000000e+000
57949110.000	-4.166911e-001	1.460755e+002	-6.684496e+001	-2.621502e+001	-2.000000e+002	0.000000e+000	-2.000000e+002	0.000000e+000
58599100.000	-4.213539e-001	1.436270e+002	-6.675658e+001	-3.981708e+001	-2.000000e+002	0.000000e+000	-2.000000e+002	0.000000e+000
59249090.000	-4.264716e-001	1.411865e+002	-6.636014e+001	-5.203603e+001	-2.000000e+002	0.000000e+000	-2.000000e+002	0.000000e+000
59899080.000	-4.311714e-001	1.387452e+002	-6.594166e+001	-6.174516e+001	-2.000000e+002	0.000000e+000	-2.000000e+002	0.000000e+000
60549070.000	-4.360046e-001	1.363089e+002	-6.506882e+001	-6.994861e+001	-2.000000e+002	0.000000e+000	-2.000000e+002	0.000000e+000
61199060.000	-4.412598e-001	1.338758e+002	-6.411302e+001	-7.569498e+001	-2.000000e+002	0.000000e+000	-2.000000e+002	0.000000e+000
61849050.000	-4.455282e-001	1.314450e+002	-6.283654e+001	-8.213812e+001	-2.000000e+002	0.000000e+000	-2.000000e+002	0.000000e+000
62499040.000	-4.500564e-001	1.290178e+002	-6.159806e+001	-8.972297e+001	-2.000000e+002	0.000000e+000	-2.000000e+002	0.000000e+000
63149030.000	-4.534059e-001	1.265895e+002	-6.056794e+001	-9.808645e+001	-2.000000e+002	0.000000e+000	-2.000000e+002	0.000000e+000
63799020.000	-4.569238e-001	1.241640e+002	-5.980788e+001	-1.074254e+002	-2.000000e+002	0.000000e+000	-2.000000e+002	0.000000e+000
64449010.000	-4.603163e-001	1.217449e+002	-5.951377e+001	-1.156355e+002	-2.000000e+002	0.000000e+000	-2.000000e+002	0.000000e+000
65099000.000	-4.627268e-001	1.193186e+002	-5.931196e+001	-1.224197e+002	-2.000000e+002	0.000000e+000	-2.000000e+002	0.000000e+000
65748990.000	-4.649429e-001	1.168920e+002	-5.906572e+001	-1.278833e+002	-2.000000e+002	0.000000e+000	-2.000000e+002	0.000000e+000
66398980.000	-4.679414e-001	1.144747e+002	-5.898556e+001	-1.330828e+002	-2.000000e+002	0.000000e+000	-2.000000e+002	0.000000e+000
67048970.000	-4.701486e-001	1.120522e+002	-5.886254e+001	-1.375800e+002	-2.000000e+002	0.000000e+000	-2.000000e+002	0.000000e+000
67698960.000	-4.726672e-001	1.096390e+002	-5.875649e+001	-1.416012e+002	-2.000000e+002	0.000000e+000	-2.000000e+002	0.000000e+000
68348950.000	-4.743640e-001	1.072242e+002	-5.867141e+001	-1.451089e+002	-2.000000e+002	0.000000e+000	-2.000000e+002	0.000000e+000
68998940.000	-4.767833e-001	1.048123e+002	-5.854048e+001	-1.484586e+002	-2.000000e+002	0.000000e+000	-2.000000e+002	0.000000e+000
69648930.000	-4.783672e-001	1.023988e+002	-5.848939e+001	-1.513932e+002	-2.000000e+002	0.000000e+000	-2.000000e+002	0.000000e+000
70298920.000	-4.798131e-001	9.998172e+001	-5.839937e+001	-1.543559e+002	-2.000000e+002	0.000000e+000	-2.000000e+002	0.000000e+000
70948910.000	-4.819701e-001	9.757506e+001	-5.825473e+001	-1.568411e+002	-2.000000e+002	0.000000e+000	-2.000000e+002	0.000000e+000
71598900.000	-4.831724e-001	9.516630e+001	-5.817395e+001	-1.591738e+002	-2.000000e+002	0.000000e+000	-2.000000e+002	0.000000e+000
72248890.000	-4.847589e-001	9.276306e+001	-5.804243e+001	-1.617001e+002	-2.000000e+002	0.000000e+000	-2.000000e+002	0.000000e+000
72898880.000	-4.856840e-001	9.036333e+001	-5.789390e+001	-1.646016e+002	-2.000000e+002	0.000000e+000	-2.000000e+002	0.000000e+000
73548870.000	-4.870675e-001	8.796419e+001	-5.782538e+001	-1.667021e+002	-2.000000e+002	0.000000e+000	-2.000000e+002	0.000000e+000
74198860.000	-4.875104e-001	8.556885e+001	-5.772052e+001	-1.689444e+002	-2.000000e+002	0.000000e+000	-2.000000e+002	0.000000e+000
74848850.000	-4.889497e-001	8.317557e+001	-5.757897e+001	-1.710484e+002	-2.000000e+002	0.000000e+000	-2.000000e+002	0.000000e+000
75498840.000	-4.893217e-001	8.078415e+001	-5.751291e+001	-1.735456e+002	-2.000000e+002	0.000000e+000	-2.000000e+002	0.000000e+000
76148830.000	-4.894782e-001	7.839229e+001	-5.745580e+001	-1.753452e+002	-2.000000e+002	0.000000e+000	-2.000000e+002	0.000000e+000
76798820.000	-4.887350e-001	7.600419e+001	-5.740074e+001	-1.770045e+002	-2.000000e+002	0.000000e+000	-2.000000e+002	0.000000e+000
77448810.000	-4.898735e-001	7.363695e+001	-5.734288e+001	-1.786084e+002	-2.000000e+002	0.000000e+000	-2.000000e+002	0.000000e+000
78098800.000	-4.903696e-001	7.125255e+001	-5.716267e+001	1.799349e+002	-2.000000e+002	0.000000e+000	-2.000000e+002	0.000000e+000
78748790.000	-4.899478e-001	6.887707e+001	-5.699462e+001	1.785629e+002	-2.000000e+002	0.000000e+000	-2.000000e+002	0.000000e+000
79398780.000	-4.891492e-001	6.650072e+001	-5.677476e+001	1.770011e+002	-2.000000e+002	0.000000e+000	-2.000000e+002	0.000000e+000
80048770.000	-4.885901e-001	6.411516e+001	-5.649237e+001	1.750520e+002	-2.000000e+002	0.000000e+000	-2.000000e+002	0.000000e+000
80698760.000	-4.876083e-001	6.174611e+001	-5.625324e+001	1.722417e+002	-2.000000e+002	0.000000e+000	-2.000000e+002	0.000000e+000
81348750.000	-4.853886e-001	5.937466e+001	-5.607846e+001	1.696905e+002	-2.000000e+002	0.000000e+000	-2.000000e+002	0.000000e+000
81998740.000	-4.841678e-001	5.700419e+001	-5.601494e+001	1.672459e+002	-2.000000e+002	0.000000e+000	-2.000000e+002	0.000000e+000
82648730.000	-4.824720e-001	5.465208e+001	-5.591228e+001	1.650922e+002	-2.000000e+002	0.000000e+000	-2.000000e+002	0.000000e+000
83298720.000	-4.810609e-001	5.228191e+001	-5.588555e+001	1.626458e+002	-2.000000e+002	0.000000e+000	-2.000000e+002	0.000000e+000
83948710.000	-4.795695e-001	4.991575e+001	-5.578516e+001	1.607416e+002	-2.000000e+002	0.000000e+000	-2.000000e+002	0.000000e+000
84598700.000	-4.773401e-001	4.754842e+001	-5.571783e+001	1.588559e+002	-2.000000e+002	0.000000e+000	-2.000000e+002	0.000000e+000
85248690.000	-4.755737e-001	4.518473e+001	-5.548199e+001	1.567134e+002	-2.000000e+002	0.000000e+000	-2.000000e+002	0.000000e+000
85898680.000	-4.736419e-001	4.282610e+001	-5.548971e+001	1.550616e+002	-2.000000e+002	0.000000e+000	-2.000000e+002	0.000000e+000
86548670.000	-4.713431e-001	4.047000e+001	-5.535068e+001	1.530575e+002	-2.000000e+002	0.000000e+000	-2.000000e+002	0.000000e+000
87198660.000	-4.684905e-001	3.811514e+001	-5.526508e+001	1.511739e+002	-2.000000e+002	0.000000e+000	-2.000000e+002	0.000000e+000
87848650.000	-4.660725e-001	3.576355e+001	-5.516243e+001	1.497054e+002	-2.000000e+002	0.000000e+000	-2.000000e+002	0.000000e+000
88498640.000	-4.639457e-001	3.341057e+001	-5.516724e+001	1.477782e+002	-2.000000e+002	0.000000e+000	-2.000000e+002	0.000000e+000
89148630.000	-4.620484e-001	3.106243e+001	-5.504165e+001	1.462827e+002	-2.000000e+002	0.000000e+000	-2.000000e+002	0.000000e+000
89798620.000	-4.591521e-001	2.870772e+001	-5.487095e+001	1.444795e+002	-2.000000e+002	0.000000e+000	-2.000000e+002	0.000000e+000
90448610.000	-4.567503e-001	2.635846e+001	-5.476531e+001	1.425533e+002	-2.000000e+002	0.000000e+000	-2.000000e+002	0.000000e+000
91098600.000	-4.548112e-001	2.400799e+001	-5.462052e+001	1.408824e+002	-2.000000e+002	0.000000e+000	-2.000000e+002	0.000000e+000
91748590.000	-4.519160e-001	2.165614e+001	-5.445419e+001	1.391246e+002	-2.000000e+002	0.000000e+000	-2.000000e+002	0.000000e+000
92398580.000	-4.486524e-001	1.931150e+001	-5.438384e+001	1.368779e+002	-2.000000e+002	0.000000e+000	-2.000000e+002	0.000000e+000
93048570.000	-4.450363e-001	1.696288e+001	-5.412965e+001	1.355443e+002	-2.000000e+002	0.000000e+000	-2.000000e+002	0.000000e+000
93698560.000	-4.435006e-001	1.461570e+001	-5.422413e+001	1.330071e+002	-2.000000e+002	0.000000e+000	-2.000000e+002	0.000000e+000
94348550.000	-4.406129e-001	1.227306e+001	-5.416551e+001	1.316187e+002	-2.000000e+002	0.000000e+000	-2.000000e+002	0.000000e+000
94998540.000	-4.379876e-001	9.925691e+000	-5.393791e+001	1.302621e+002	-2.000000e+002	0.000000e+000	-2.000000e+002	0.000000e+000
95648530.000	-4.352146e-001	7.587644e+000	-5.400544e+001	1.289566e+002	-2.000000e+002	0.000000e+000	-2.000000e+002	0.000000e+000
96298520.000	-4.321924e-001	5.249432e+000	-5.397819e+001	1.273686e+002	-2.000000e+002	0.000000e+000	-2.000000e+002	0.000000e+000
96948510.000	-4.300149e-001	2.908769e+000	-5.393385e+001	1.264492e+002	-2.000000e+002	0.000000e+000	-2.000000e+002	0.000000e+000
97598500.000	-4.278656e-001	5.695487e-001	-5.390579e+001	1.255836e+002	-2.000000e+002	0.000000e+000	-2.000000e+002	0.000000e+000
98248490.000	-4.248634e-001	-1.769218e+000	-5.391639e+001	1.255774e+002	-2.000000e+002	0.000000e+000	-2.000000e+002	0.000000e+000
