!Keysight Technologies,E5063A,MY54503115,A.05.08
!Date: Mon Mar 04 15:58:09 2024
!Data & Calibration Information:
!Freq	S11:NONE(--)	S21:NONE(--)	S12:NONE(--)	S22:NONE(--)
# Hz S dB R 50
100000.000	4.577714e-002	-9.123094e-001	-8.890578e+001	2.940835e+001	-2.000000e+002	0.000000e+000	-2.000000e+002	0.000000e+000
749990.000	2.448331e-003	-3.073950e+000	-8.690653e+001	-1.103425e+002	-2.000000e+002	0.000000e+000	-2.000000e+002	0.000000e+000
1399980.000	4.440324e-003	-5.377091e+000	-8.894312e+001	-1.545176e+002	-2.000000e+002	0.000000e+000	-2.000000e+002	0.000000e+000
2049970.000	3.778154e-003	-7.697501e+000	-8.142495e+001	1.110784e+002	-2.000000e+002	0.000000e+000	-2.000000e+002	0.000000e+000
2699960.000	3.552783e-003	-1.002298e+001	-7.815203e+001	9.954400e+001	-2.000000e+002	0.000000e+000	-2.000000e+002	0.000000e+000
3349950.000	7.064209e-003	-1.236960e+001	-7.531111e+001	9.105844e+001	-2.000000e+002	0.000000e+000	-2.000000e+002	0.000000e+000
3999940.000	6.753552e-003	-1.469452e+001	-7.699392e+001	9.055770e+001	-2.000000e+002	0.000000e+000	-2.000000e+002	0.000000e+000
4649930.000	9.111734e-003	-1.703910e+001	-7.463200e+001	8.934475e+001	-2.000000e+002	0.000000e+000	-2.000000e+002	0.000000e+000
5299920.000	7.762494e-003	-1.936983e+001	-7.257549e+001	7.228321e+001	-2.000000e+002	0.000000e+000	-2.000000e+002	0.000000e+000
5949910.000	7.419192e-003	-2.170473e+001	-7.235884e+001	7.969390e+001	-2.000000e+002	0.000000e+000	-2.000000e+002	0.000000e+000
6599900.000	8.028694e-003	-2.404420e+001	-7.178081e+001	7.369924e+001	-2.000000e+002	0.000000e+000	-2.000000e+002	0.000000e+000
7249890.000	8.136372e-003	-2.638314e+001	-7.002637e+001	6.522001e+001	-2.000000e+002	0.000000e+000	-2.000000e+002	0.000000e+000
7899880.000	7.948993e-003	-2.873534e+001	-7.038803e+001	6.756746e+001	-2.000000e+002	0.000000e+000	-2.000000e+002	0.000000e+000
8549870.000	1.153609e-002	-3.108118e+001	-6.889161e+001	6.314263e+001	-2.000000e+002	0.000000e+000	-2.000000e+002	0.000000e+000
9199860.000	1.049204e-002	-3.342389e+001	-6.813011e+001	6.173085e+001	-2.000000e+002	0.000000e+000	-2.000000e+002	0.000000e+000
9849850.000	9.704883e-003	-3.576668e+001	-6.771877e+001	5.954478e+001	-2.000000e+002	0.000000e+000	-2.000000e+002	0.000000e+000
10499840.000	8.263111e-003	-3.810570e+001	-6.701517e+001	5.751538e+001	-2.000000e+002	0.000000e+000	-2.000000e+002	0.000000e+000
11149830.000	5.399360e-003	-4.044840e+001	-6.660887e+001	5.431136e+001	-2.000000e+002	0.000000e+000	-2.000000e+002	0.000000e+000
11799820.000	3.910265e-003	-4.279547e+001	-6.590693e+001	5.226195e+001	-2.000000e+002	0.000000e+000	-2.000000e+002	0.000000e+000
12449810.000	4.235803e-003	-4.515068e+001	-6.534642e+001	4.950128e+001	-2.000000e+002	0.000000e+000	-2.000000e+002	0.000000e+000
13099800.000	5.154707e-003	-4.750352e+001	-6.482024e+001	4.772638e+001	-2.000000e+002	0.000000e+000	-2.000000e+002	0.000000e+000
13749790.000	2.898594e-003	-4.985369e+001	-6.451535e+001	4.416158e+001	-2.000000e+002	0.000000e+000	-2.000000e+002	0.000000e+000
14399780.000	4.267088e-004	-5.221423e+001	-6.403120e+001	4.279408e+001	-2.000000e+002	0.000000e+000	-2.000000e+002	0.000000e+000
15049770.000	-5.315945e-004	-5.457365e+001	-6.358674e+001	4.076743e+001	-2.000000e+002	0.000000e+000	-2.000000e+002	0.000000e+000
15699760.000	-1.607299e-003	-5.691863e+001	-6.332263e+001	3.828931e+001	-2.000000e+002	0.000000e+000	-2.000000e+002	0.000000e+000
16349750.000	-3.794373e-003	-5.927569e+001	-6.282805e+001	3.570817e+001	-2.000000e+002	0.000000e+000	-2.000000e+002	0.000000e+000
16999740.000	-6.288423e-003	-6.164844e+001	-6.250261e+001	3.430434e+001	-2.000000e+002	0.000000e+000	-2.000000e+002	0.000000e+000
17649730.000	-3.026439e-003	-6.401818e+001	-6.204195e+001	3.091539e+001	-2.000000e+002	0.000000e+000	-2.000000e+002	0.000000e+000
18299720.000	-2.760756e-003	-6.639191e+001	-6.175616e+001	2.912317e+001	-2.000000e+002	0.000000e+000	-2.000000e+002	0.000000e+000
18949710.000	-6.462543e-003	-6.876247e+001	-6.127604e+001	2.743932e+001	-2.000000e+002	0.000000e+000	-2.000000e+002	0.000000e+000
19599700.000	-1.504126e-002	-7.112690e+001	-6.088470e+001	2.485200e+001	-2.000000e+002	0.000000e+000	-2.000000e+002	0.000000e+000
20249690.000	-2.123437e-002	-7.349606e+001	-6.047709e+001	2.307334e+001	-2.000000e+002	0.000000e+000	-2.000000e+002	0.000000e+000
20899680.000	-2.514772e-002	-7.589899e+001	-6.010444e+001	2.079486e+001	-2.000000e+002	0.000000e+000	-2.000000e+002	0.000000e+000
21549670.000	-2.845000e-002	-7.828374e+001	-5.963828e+001	1.757596e+001	-2.000000e+002	0.000000e+000	-2.000000e+002	0.000000e+000
22199660.000	-3.299426e-002	-8.065500e+001	-5.933274e+001	1.559618e+001	-2.000000e+002	0.000000e+000	-2.000000e+002	0.000000e+000
22849650.000	-3.642179e-002	-8.301485e+001	-5.901329e+001	1.395052e+001	-2.000000e+002	0.000000e+000	-2.000000e+002	0.000000e+000
23499640.000	-4.169246e-002	-8.540281e+001	-5.869476e+001	1.118003e+001	-2.000000e+002	0.000000e+000	-2.000000e+002	0.000000e+000
24149630.000	-4.780627e-002	-8.779814e+001	-5.824847e+001	9.380487e+000	-2.000000e+002	0.000000e+000	-2.000000e+002	0.000000e+000
24799620.000	-5.297746e-002	-9.019126e+001	-5.783724e+001	7.555639e+000	-2.000000e+002	0.000000e+000	-2.000000e+002	0.000000e+000
25449610.000	-5.702413e-002	-9.257703e+001	-5.745092e+001	4.832314e+000	-2.000000e+002	0.000000e+000	-2.000000e+002	0.000000e+000
26099600.000	-6.264869e-002	-9.496931e+001	-5.695570e+001	2.581466e+000	-2.000000e+002	0.000000e+000	-2.000000e+002	0.000000e+000
26749590.000	-6.879868e-002	-9.737033e+001	-5.650918e+001	-8.357099e-001	-2.000000e+002	0.000000e+000	-2.000000e+002	0.000000e+000
27399580.000	-7.491459e-002	-9.977113e+001	-5.628162e+001	-4.109835e+000	-2.000000e+002	0.000000e+000	-2.000000e+002	0.000000e+000
28049570.000	-8.042195e-002	-1.021764e+002	-5.596118e+001	-7.340637e+000	-2.000000e+002	0.000000e+000	-2.000000e+002	0.000000e+000
28699560.000	-8.700927e-002	-1.045779e+002	-5.575871e+001	-9.928133e+000	-2.000000e+002	0.000000e+000	-2.000000e+002	0.000000e+000
29349550.000	-9.416010e-002	-1.069876e+002	-5.552346e+001	-1.226931e+001	-2.000000e+002	0.000000e+000	-2.000000e+002	0.000000e+000
29999540.000	-1.009150e-001	-1.094047e+002	-5.541165e+001	-1.421830e+001	-2.000000e+002	0.000000e+000	-2.000000e+002	0.000000e+000
30649530.000	-1.080717e-001	-1.118258e+002	-5.513022e+001	-1.532900e+001	-2.000000e+002	0.000000e+000	-2.000000e+002	0.000000e+000
31299520.000	-1.152806e-001	-1.142458e+002	-5.480102e+001	-1.578464e+001	-2.000000e+002	0.000000e+000	-2.000000e+002	0.000000e+000
31949510.000	-1.237236e-001	-1.166689e+002	-5.429632e+001	-1.596900e+001	-2.000000e+002	0.000000e+000	-2.000000e+002	0.000000e+000
32599500.000	-1.320439e-001	-1.190948e+002	-5.362891e+001	-1.742263e+001	-2.000000e+002	0.000000e+000	-2.000000e+002	0.000000e+000
33249490.000	-1.401952e-001	-1.215202e+002	-5.304178e+001	-1.929260e+001	-2.000000e+002	0.000000e+000	-2.000000e+002	0.000000e+000
33899480.000	-1.486119e-001	-1.239479e+002	-5.239399e+001	-2.138371e+001	-2.000000e+002	0.000000e+000	-2.000000e+002	0.000000e+000
34549470.000	-1.571106e-001	-1.263800e+002	-5.182284e+001	-2.404498e+001	-2.000000e+002	0.000000e+000	-2.000000e+002	0.000000e+000
35199460.000	-1.660234e-001	-1.288195e+002	-5.131103e+001	-2.552704e+001	-2.000000e+002	0.000000e+000	-2.000000e+002	0.000000e+000
35849450.000	-1.761133e-001	-1.312605e+002	-5.049336e+001	-2.576679e+001	-2.000000e+002	0.000000e+000	-2.000000e+002	0.000000e+000
36499440.000	-1.860267e-001	-1.337007e+002	-4.939214e+001	-2.738434e+001	-2.000000e+002	0.000000e+000	-2.000000e+002	0.000000e+000
37149430.000	-1.955913e-001	-1.361414e+002	-4.830961e+001	-3.088692e+001	-2.000000e+002	0.000000e+000	-2.000000e+002	0.000000e+000
37799420.000	-2.049131e-001	-1.385900e+002	-4.722453e+001	-3.487046e+001	-2.000000e+002	0.000000e+000	-2.000000e+002	0.000000e+000
38449410.000	-2.141375e-001	-1.410392e+002	-4.605185e+001	-3.966991e+001	-2.000000e+002	0.000000e+000	-2.000000e+002	0.000000e+000
39099400.000	-2.230773e-001	-1.435020e+002	-4.495403e+001	-4.524522e+001	-2.000000e+002	0.000000e+000	-2.000000e+002	0.000000e+000
39749390.000	-2.321713e-001	-1.459777e+002	-4.387573e+001	-5.107642e+001	-2.000000e+002	0.000000e+000	-2.000000e+002	0.000000e+000
40399380.000	-2.424245e-001	-1.484749e+002	-4.272142e+001	-5.677978e+001	-2.000000e+002	0.000000e+000	-2.000000e+002	0.000000e+000
41049370.000	-2.547370e-001	-1.509910e+002	-4.137739e+001	-6.266667e+001	-2.000000e+002	0.000000e+000	-2.000000e+002	0.000000e+000
41699360.000	-2.701483e-001	-1.535431e+002	-3.976990e+001	-6.915171e+001	-2.000000e+002	0.000000e+000	-2.000000e+002	0.000000e+000
42349350.000	-2.939367e-001	-1.561596e+002	-3.774724e+001	-7.688609e+001	-2.000000e+002	0.000000e+000	-2.000000e+002	0.000000e+000
42999340.000	-3.415159e-001	-1.588659e+002	-3.500349e+001	-8.766107e+001	-2.000000e+002	0.000000e+000	-2.000000e+002	0.000000e+000
43649330.000	-4.647468e-001	-1.615791e+002	-3.124198e+001	-1.079319e+002	-2.000000e+002	0.000000e+000	-2.000000e+002	0.000000e+000
44299320.000	-6.873321e-001	-1.628336e+002	-2.797653e+001	-1.538052e+002	-2.000000e+002	0.000000e+000	-2.000000e+002	0.000000e+000
44949310.000	-4.954150e-001	-1.637429e+002	-3.061142e+001	1.541492e+002	-2.000000e+002	0.000000e+000	-2.000000e+002	0.000000e+000
45599300.000	-3.703035e-001	-1.664951e+002	-3.488299e+001	1.286308e+002	-2.000000e+002	0.000000e+000	-2.000000e+002	0.000000e+000
46249290.000	-3.382070e-001	-1.692404e+002	-3.831606e+001	1.146527e+002	-2.000000e+002	0.000000e+000	-2.000000e+002	0.000000e+000
46899280.000	-3.313501e-001	-1.718690e+002	-4.107480e+001	1.047326e+002	-2.000000e+002	0.000000e+000	-2.000000e+002	0.000000e+000
47549270.000	-3.322915e-001	-1.744302e+002	-4.343830e+001	9.631407e+001	-2.000000e+002	0.000000e+000	-2.000000e+002	0.000000e+000
48199260.000	-3.363280e-001	-1.769500e+002	-4.561238e+001	8.868388e+001	-2.000000e+002	0.000000e+000	-2.000000e+002	0.000000e+000
48849250.000	-3.413357e-001	-1.794456e+002	-4.767578e+001	8.158419e+001	-2.000000e+002	0.000000e+000	-2.000000e+002	0.000000e+000
49499240.000	-3.461763e-001	1.780715e+002	-4.980536e+001	7.542802e+001	-2.000000e+002	0.000000e+000	-2.000000e+002	0.000000e+000
50149230.000	-3.505419e-001	1.755934e+002	-5.186664e+001	7.142889e+001	-2.000000e+002	0.000000e+000	-2.000000e+002	0.000000e+000
50799220.000	-3.555789e-001	1.731208e+002	-5.355303e+001	6.852371e+001	-2.000000e+002	0.000000e+000	-2.000000e+002	0.000000e+000
51449210.000	-3.606916e-001	1.706434e+002	-5.511735e+001	6.473906e+001	-2.000000e+002	0.000000e+000	-2.000000e+002	0.000000e+000
52099200.000	-3.665189e-001	1.681747e+002	-5.650487e+001	5.951508e+001	-2.000000e+002	0.000000e+000	-2.000000e+002	0.000000e+000
52749190.000	-3.718653e-001	1.657103e+002	-5.801050e+001	5.349568e+001	-2.000000e+002	0.000000e+000	-2.000000e+002	0.000000e+000
53399180.000	-3.777335e-001	1.632489e+002	-5.973285e+001	4.682928e+001	-2.000000e+002	0.000000e+000	-2.000000e+002	0.000000e+000
54049170.000	-3.835007e-001	1.607888e+002	-6.125545e+001	4.075902e+001	-2.000000e+002	0.000000e+000	-2.000000e+002	0.000000e+000
54699160.000	-3.892378e-001	1.583300e+002	-6.277122e+001	3.507653e+001	-2.000000e+002	0.000000e+000	-2.000000e+002	0.000000e+000
55349150.000	-3.947694e-001	1.558747e+002	-6.403589e+001	2.748558e+001	-2.000000e+002	0.000000e+000	-2.000000e+002	0.000000e+000
55999140.000	-4.004092e-001	1.534208e+002	-6.496940e+001	1.685685e+001	-2.000000e+002	0.000000e+000	-2.000000e+002	0.000000e+000
56649130.000	-4.059893e-001	1.509704e+002	-6.602599e+001	3.352355e+000	-2.000000e+002	0.000000e+000	-2.000000e+002	0.000000e+000
57299120.000	-4.114255e-001	1.485239e+002	-6.662007e+001	-1.127466e+001	-2.000000e+002	0.000000e+000	-2.000000e+002	0.000000e+000
57949110.000	-4.165368e-001	1.460760e+002	-6.684911e+001	-2.443514e+001	-2.000000e+002	0.000000e+000	-2.000000e+002	0.000000e+000
58599100.000	-4.212604e-001	1.436275e+002	-6.666055e+001	-3.876854e+001	-2.000000e+002	0.000000e+000	-2.000000e+002	0.000000e+000
59249090.000	-4.266922e-001	1.411884e+002	-6.639071e+001	-5.124776e+001	-2.000000e+002	0.000000e+000	-2.000000e+002	0.000000e+000
59899080.000	-4.311022e-001	1.387458e+002	-6.587877e+001	-6.133298e+001	-2.000000e+002	0.000000e+000	-2.000000e+002	0.000000e+000
60549070.000	-4.358703e-001	1.363085e+002	-6.495420e+001	-6.914626e+001	-2.000000e+002	0.000000e+000	-2.000000e+002	0.000000e+000
61199060.000	-4.412702e-001	1.338757e+002	-6.412351e+001	-7.442623e+001	-2.000000e+002	0.000000e+000	-2.000000e+002	0.000000e+000
61849050.000	-4.454154e-001	1.314427e+002	-6.292099e+001	-8.191428e+001	-2.000000e+002	0.000000e+000	-2.000000e+002	0.000000e+000
62499040.000	-4.498704e-001	1.290167e+002	-6.172058e+001	-8.932409e+001	-2.000000e+002	0.000000e+000	-2.000000e+002	0.000000e+000
63149030.000	-4.532688e-001	1.265893e+002	-6.061193e+001	-9.818450e+001	-2.000000e+002	0.000000e+000	-2.000000e+002	0.000000e+000
63799020.000	-4.566501e-001	1.241656e+002	-5.992378e+001	-1.073492e+002	-2.000000e+002	0.000000e+000	-2.000000e+002	0.000000e+000
64449010.000	-4.604404e-001	1.217438e+002	-5.952561e+001	-1.158873e+002	-2.000000e+002	0.000000e+000	-2.000000e+002	0.000000e+000
65099000.000	-4.627894e-001	1.193176e+002	-5.930543e+001	-1.221011e+002	-2.000000e+002	0.000000e+000	-2.000000e+002	0.000000e+000
65748990.000	-4.650203e-001	1.168907e+002	-5.909972e+001	-1.276496e+002	-2.000000e+002	0.000000e+000	-2.000000e+002	0.000000e+000
66398980.000	-4.679135e-001	1.144725e+002	-5.906908e+001	-1.331053e+002	-2.000000e+002	0.000000e+000	-2.000000e+002	0.000000e+000
67048970.000	-4.704713e-001	1.120517e+002	-5.892805e+001	-1.371918e+002	-2.000000e+002	0.000000e+000	-2.000000e+002	0.000000e+000
67698960.000	-4.728191e-001	1.096387e+002	-5.881053e+001	-1.410111e+002	-2.000000e+002	0.000000e+000	-2.000000e+002	0.000000e+000
68348950.000	-4.745630e-001	1.072233e+002	-5.866468e+001	-1.452912e+002	-2.000000e+002	0.000000e+000	-2.000000e+002	0.000000e+000
68998940.000	-4.770476e-001	1.048122e+002	-5.852685e+001	-1.480209e+002	-2.000000e+002	0.000000e+000	-2.000000e+002	0.000000e+000
69648930.000	-4.785891e-001	1.023987e+002	-5.843034e+001	-1.514214e+002	-2.000000e+002	0.000000e+000	-2.000000e+002	0.000000e+000
70298920.000	-4.800037e-001	9.997966e+001	-5.831309e+001	-1.537192e+002	-2.000000e+002	0.000000e+000	-2.000000e+002	0.000000e+000
70948910.000	-4.826267e-001	9.757214e+001	-5.822952e+001	-1.564344e+002	-2.000000e+002	0.000000e+000	-2.000000e+002	0.000000e+000
71598900.000	-4.833197e-001	9.516536e+001	-5.816788e+001	-1.592870e+002	-2.000000e+002	0.000000e+000	-2.000000e+002	0.000000e+000
72248890.000	-4.845841e-001	9.276148e+001	-5.805949e+001	-1.616019e+002	-2.000000e+002	0.000000e+000	-2.000000e+002	0.000000e+000
72898880.000	-4.856875e-001	9.036336e+001	-5.794343e+001	-1.641929e+002	-2.000000e+002	0.000000e+000	-2.000000e+002	0.000000e+000
73548870.000	-4.875891e-001	8.796457e+001	-5.791531e+001	-1.663337e+002	-2.000000e+002	0.000000e+000	-2.000000e+002	0.000000e+000
74198860.000	-4.881569e-001	8.556953e+001	-5.777207e+001	-1.688431e+002	-2.000000e+002	0.000000e+000	-2.000000e+002	0.000000e+000
74848850.000	-4.891661e-001	8.317629e+001	-5.762127e+001	-1.704396e+002	-2.000000e+002	0.000000e+000	-2.000000e+002	0.000000e+000
75498840.000	-4.896402e-001	8.078340e+001	-5.751643e+001	-1.729499e+002	-2.000000e+002	0.000000e+000	-2.000000e+002	0.000000e+000
76148830.000	-4.898846e-001	7.839170e+001	-5.739321e+001	-1.752526e+002	-2.000000e+002	0.000000e+000	-2.000000e+002	0.000000e+000
76798820.000	-4.890974e-001	7.600412e+001	-5.735222e+001	-1.767799e+002	-2.000000e+002	0.000000e+000	-2.000000e+002	0.000000e+000
77448810.000	-4.901191e-001	7.363587e+001	-5.730379e+001	-1.786909e+002	-2.000000e+002	0.000000e+000	-2.000000e+002	0.000000e+000
78098800.000	-4.903671e-001	7.125074e+001	-5.719352e+001	-1.794303e+002	-2.000000e+002	0.000000e+000	-2.000000e+002	0.000000e+000
78748790.000	-4.902025e-001	6.887477e+001	-5.698421e+001	1.788859e+002	-2.000000e+002	0.000000e+000	-2.000000e+002	0.000000e+000
79398780.000	-4.891895e-001	6.649774e+001	-5.674692e+001	1.771062e+002	-2.000000e+002	0.000000e+000	-2.000000e+002	0.000000e+000
80048770.000	-4.888637e-001	6.411499e+001	-5.650205e+001	1.751823e+002	-2.000000e+002	0.000000e+000	-2.000000e+002	0.000000e+000
80698760.000	-4.878676e-001	6.174552e+001	-5.624508e+001	1.730422e+002	-2.000000e+002	0.000000e+000	-2.000000e+002	0.000000e+000
81348750.000	-4.861470e-001	5.937375e+001	-5.603448e+001	1.703012e+002	-2.000000e+002	0.000000e+000	-2.000000e+002	0.000000e+000
81998740.000	-4.844723e-001	5.700609e+001	-5.592324e+001	1.676031e+002	-2.000000e+002	0.000000e+000	-2.000000e+002	0.000000e+000
82648730.000	-4.832202e-001	5.465066e+001	-5.579880e+001	1.650938e+002	-2.000000e+002	0.000000e+000	-2.000000e+002	0.000000e+000
83298720.000	-4.816960e-001	5.228051e+001	-5.573920e+001	1.628027e+002	-2.000000e+002	0.000000e+000	-2.000000e+002	0.000000e+000
83948710.000	-4.799121e-001	4.991216e+001	-5.568182e+001	1.609871e+002	-2.000000e+002	0.000000e+000	-2.000000e+002	0.000000e+000
84598700.000	-4.776320e-001	4.755001e+001	-5.561044e+001	1.589229e+002	-2.000000e+002	0.000000e+000	-2.000000e+002	0.000000e+000
85248690.000	-4.760830e-001	4.518709e+001	-5.552455e+001	1.568989e+002	-2.000000e+002	0.000000e+000	-2.000000e+002	0.000000e+000
85898680.000	-4.741633e-001	4.282517e+001	-5.537397e+001	1.550736e+002	-2.000000e+002	0.000000e+000	-2.000000e+002	0.000000e+000
86548670.000	-4.714764e-001	4.046703e+001	-5.525335e+001	1.535035e+002	-2.000000e+002	0.000000e+000	-2.000000e+002	0.000000e+000
87198660.000	-4.689775e-001	3.811256e+001	-5.524050e+001	1.510624e+002	-2.000000e+002	0.000000e+000	-2.000000e+002	0.000000e+000
87848650.000	-4.665942e-001	3.576161e+001	-5.511086e+001	1.489427e+002	-2.000000e+002	0.000000e+000	-2.000000e+002	0.000000e+000
88498640.000	-4.642705e-001	3.341085e+001	-5.499343e+001	1.478812e+002	-2.000000e+002	0.000000e+000	-2.000000e+002	0.000000e+000
89148630.000	-4.625169e-001	3.105943e+001	-5.492090e+001	1.460558e+002	-2.000000e+002	0.000000e+000	-2.000000e+002	0.000000e+000
89798620.000	-4.596197e-001	2.870802e+001	-5.477527e+001	1.444293e+002	-2.000000e+002	0.000000e+000	-2.000000e+002	0.000000e+000
90448610.000	-4.569168e-001	2.635803e+001	-5.462414e+001	1.420570e+002	-2.000000e+002	0.000000e+000	-2.000000e+002	0.000000e+000
91098600.000	-4.549538e-001	2.400700e+001	-5.449952e+001	1.401628e+002	-2.000000e+002	0.000000e+000	-2.000000e+002	0.000000e+000
91748590.000	-4.518960e-001	2.165483e+001	-5.441526e+001	1.387815e+002	-2.000000e+002	0.000000e+000	-2.000000e+002	0.000000e+000
92398580.000	-4.487678e-001	1.930942e+001	-5.431671e+001	1.366172e+002	-2.000000e+002	0.000000e+000	-2.000000e+002	0.000000e+000
93048570.000	-4.462238e-001	1.696557e+001	-5.456063e+001	1.352190e+002	-2.000000e+002	0.000000e+000	-2.000000e+002	0.000000e+000
93698560.000	-4.432979e-001	1.461453e+001	-5.417076e+001	1.326854e+002	-2.000000e+002	0.000000e+000	-2.000000e+002	0.000000e+000
94348550.000	-4.404932e-001	1.226936e+001	-5.412546e+001	1.308676e+002	-2.000000e+002	0.000000e+000	-2.000000e+002	0.000000e+000
94998540.000	-4.378488e-001	9.930400e+000	-5.387292e+001	1.289277e+002	-2.000000e+002	0.000000e+000	-2.000000e+002	0.000000e+000
95648530.000	-4.354257e-001	7.586973e+000	-5.404505e+001	1.281116e+002	-2.000000e+002	0.000000e+000	-2.000000e+002	0.000000e+000
96298520.000	-4.321710e-001	5.246482e+000	-5.392558e+001	1.267345e+002	-2.000000e+002	0.000000e+000	-2.000000e+002	0.000000e+000
96948510.000	-4.302820e-001	2.909479e+000	-5.390910e+001	1.257221e+002	-2.000000e+002	0.000000e+000	-2.000000e+002	0.000000e+000
97598500.000	-4.275817e-001	5.693484e-001	-5.390030e+001	1.251140e+002	-2.000000e+002	0.000000e+000	-2.000000e+002	0.000000e+000
98248490.000	-4.248902e-001	-1.770634e+000	-5.381864e+001	1.253361e+002	-2.000000e+002	0.000000e+000	-2.000000e+002	0.000000e+000
