!Keysight Technologies,E5063A,MY54503115,A.05.08
!Date: Mon Mar 04 16:03:31 2024
!Data & Calibration Information:
!Freq	S11:NONE(--)	S21:NONE(--)	S12:NONE(--)	S22:NONE(--)
# Hz S dB R 50
100000.000	4.787191e-002	-9.005186e-001	-8.303114e+001	6.470814e+001	-2.000000e+002	0.000000e+000	-2.000000e+002	0.000000e+000
749990.000	5.337713e-003	-3.075973e+000	-8.786233e+001	-9.979757e+001	-2.000000e+002	0.000000e+000	-2.000000e+002	0.000000e+000
1399980.000	6.668113e-003	-5.378876e+000	-8.519216e+001	1.215481e+002	-2.000000e+002	0.000000e+000	-2.000000e+002	0.000000e+000
2049970.000	5.516260e-003	-7.704319e+000	-8.221321e+001	1.136830e+002	-2.000000e+002	0.000000e+000	-2.000000e+002	0.000000e+000
2699960.000	7.888684e-003	-1.002372e+001	-7.718826e+001	8.141852e+001	-2.000000e+002	0.000000e+000	-2.000000e+002	0.000000e+000
3349950.000	9.491195e-003	-1.236484e+001	-7.603909e+001	9.721718e+001	-2.000000e+002	0.000000e+000	-2.000000e+002	0.000000e+000
3999940.000	8.963898e-003	-1.469741e+001	-7.449700e+001	7.166026e+001	-2.000000e+002	0.000000e+000	-2.000000e+002	0.000000e+000
4649930.000	1.124424e-002	-1.703488e+001	-7.411914e+001	7.247065e+001	-2.000000e+002	0.000000e+000	-2.000000e+002	0.000000e+000
5299920.000	1.029790e-002	-1.936417e+001	-7.211775e+001	8.182873e+001	-2.000000e+002	0.000000e+000	-2.000000e+002	0.000000e+000
5949910.000	9.696563e-003	-2.170473e+001	-7.110311e+001	6.111749e+001	-2.000000e+002	0.000000e+000	-2.000000e+002	0.000000e+000
6599900.000	1.020803e-002	-2.404467e+001	-7.106172e+001	7.087557e+001	-2.000000e+002	0.000000e+000	-2.000000e+002	0.000000e+000
7249890.000	9.654955e-003	-2.638509e+001	-7.140674e+001	6.748257e+001	-2.000000e+002	0.000000e+000	-2.000000e+002	0.000000e+000
7899880.000	9.477931e-003	-2.872423e+001	-6.912645e+001	5.942142e+001	-2.000000e+002	0.000000e+000	-2.000000e+002	0.000000e+000
8549870.000	1.374338e-002	-3.107366e+001	-6.863677e+001	6.405858e+001	-2.000000e+002	0.000000e+000	-2.000000e+002	0.000000e+000
9199860.000	1.265416e-002	-3.341760e+001	-6.786649e+001	5.918678e+001	-2.000000e+002	0.000000e+000	-2.000000e+002	0.000000e+000
9849850.000	1.168315e-002	-3.576381e+001	-6.710775e+001	5.653745e+001	-2.000000e+002	0.000000e+000	-2.000000e+002	0.000000e+000
10499840.000	9.875269e-003	-3.810042e+001	-6.667790e+001	5.562607e+001	-2.000000e+002	0.000000e+000	-2.000000e+002	0.000000e+000
11149830.000	7.362834e-003	-4.044434e+001	-6.586456e+001	5.322755e+001	-2.000000e+002	0.000000e+000	-2.000000e+002	0.000000e+000
11799820.000	5.991318e-003	-4.278868e+001	-6.535596e+001	5.058990e+001	-2.000000e+002	0.000000e+000	-2.000000e+002	0.000000e+000
12449810.000	6.451240e-003	-4.514095e+001	-6.498710e+001	4.971480e+001	-2.000000e+002	0.000000e+000	-2.000000e+002	0.000000e+000
13099800.000	7.202342e-003	-4.749531e+001	-6.464094e+001	4.431474e+001	-2.000000e+002	0.000000e+000	-2.000000e+002	0.000000e+000
13749790.000	4.655482e-003	-4.984383e+001	-6.401546e+001	4.257247e+001	-2.000000e+002	0.000000e+000	-2.000000e+002	0.000000e+000
14399780.000	2.313741e-003	-5.220642e+001	-6.351710e+001	4.039552e+001	-2.000000e+002	0.000000e+000	-2.000000e+002	0.000000e+000
15049770.000	1.814505e-003	-5.456362e+001	-6.307519e+001	3.772022e+001	-2.000000e+002	0.000000e+000	-2.000000e+002	0.000000e+000
15699760.000	4.105769e-004	-5.690695e+001	-6.273899e+001	3.581372e+001	-2.000000e+002	0.000000e+000	-2.000000e+002	0.000000e+000
16349750.000	-1.464304e-003	-5.926594e+001	-6.237754e+001	3.370933e+001	-2.000000e+002	0.000000e+000	-2.000000e+002	0.000000e+000
16999740.000	-4.243830e-003	-6.163688e+001	-6.211189e+001	3.143285e+001	-2.000000e+002	0.000000e+000	-2.000000e+002	0.000000e+000
17649730.000	-5.422083e-004	-6.400947e+001	-6.161540e+001	2.866666e+001	-2.000000e+002	0.000000e+000	-2.000000e+002	0.000000e+000
18299720.000	-5.098920e-004	-6.638272e+001	-6.145824e+001	2.648857e+001	-2.000000e+002	0.000000e+000	-2.000000e+002	0.000000e+000
18949710.000	-4.151601e-003	-6.875325e+001	-6.115287e+001	2.406577e+001	-2.000000e+002	0.000000e+000	-2.000000e+002	0.000000e+000
19599700.000	-1.297391e-002	-7.111694e+001	-6.089855e+001	2.325482e+001	-2.000000e+002	0.000000e+000	-2.000000e+002	0.000000e+000
20249690.000	-1.895162e-002	-7.349080e+001	-6.052612e+001	2.056829e+001	-2.000000e+002	0.000000e+000	-2.000000e+002	0.000000e+000
20899680.000	-2.312133e-002	-7.589134e+001	-6.018753e+001	1.962800e+001	-2.000000e+002	0.000000e+000	-2.000000e+002	0.000000e+000
21549670.000	-2.718953e-002	-7.827648e+001	-5.995452e+001	1.823193e+001	-2.000000e+002	0.000000e+000	-2.000000e+002	0.000000e+000
22199660.000	-3.174623e-002	-8.064774e+001	-5.917365e+001	1.703147e+001	-2.000000e+002	0.000000e+000	-2.000000e+002	0.000000e+000
22849650.000	-3.538722e-002	-8.300470e+001	-5.889241e+001	1.545767e+001	-2.000000e+002	0.000000e+000	-2.000000e+002	0.000000e+000
23499640.000	-4.103526e-002	-8.539207e+001	-5.806313e+001	1.175999e+001	-2.000000e+002	0.000000e+000	-2.000000e+002	0.000000e+000
24149630.000	-4.661239e-002	-8.778698e+001	-5.778383e+001	9.973012e+000	-2.000000e+002	0.000000e+000	-2.000000e+002	0.000000e+000
24799620.000	-5.172160e-002	-9.017702e+001	-5.745331e+001	7.736470e+000	-2.000000e+002	0.000000e+000	-2.000000e+002	0.000000e+000
25449610.000	-5.558327e-002	-9.256312e+001	-5.700462e+001	4.414236e+000	-2.000000e+002	0.000000e+000	-2.000000e+002	0.000000e+000
26099600.000	-6.160001e-002	-9.495608e+001	-5.654751e+001	1.629536e+000	-2.000000e+002	0.000000e+000	-2.000000e+002	0.000000e+000
26749590.000	-6.778140e-002	-9.735369e+001	-5.625903e+001	-1.618804e+000	-2.000000e+002	0.000000e+000	-2.000000e+002	0.000000e+000
27399580.000	-7.394133e-002	-9.975507e+001	-5.593863e+001	-3.663389e+000	-2.000000e+002	0.000000e+000	-2.000000e+002	0.000000e+000
28049570.000	-7.931501e-002	-1.021603e+002	-5.551488e+001	-7.921111e+000	-2.000000e+002	0.000000e+000	-2.000000e+002	0.000000e+000
28699560.000	-8.624541e-002	-1.045636e+002	-5.525960e+001	-1.028242e+001	-2.000000e+002	0.000000e+000	-2.000000e+002	0.000000e+000
29349550.000	-9.318389e-002	-1.069732e+002	-5.500078e+001	-1.323587e+001	-2.000000e+002	0.000000e+000	-2.000000e+002	0.000000e+000
29999540.000	-9.968730e-002	-1.093853e+002	-5.493405e+001	-1.553745e+001	-2.000000e+002	0.000000e+000	-2.000000e+002	0.000000e+000
30649530.000	-1.067514e-001	-1.118074e+002	-5.458119e+001	-1.729222e+001	-2.000000e+002	0.000000e+000	-2.000000e+002	0.000000e+000
31299520.000	-1.137040e-001	-1.142277e+002	-5.443516e+001	-1.831302e+001	-2.000000e+002	0.000000e+000	-2.000000e+002	0.000000e+000
31949510.000	-1.219480e-001	-1.166500e+002	-5.403348e+001	-1.947689e+001	-2.000000e+002	0.000000e+000	-2.000000e+002	0.000000e+000
32599500.000	-1.302441e-001	-1.190787e+002	-5.355528e+001	-2.057290e+001	-2.000000e+002	0.000000e+000	-2.000000e+002	0.000000e+000
33249490.000	-1.381167e-001	-1.215035e+002	-5.307312e+001	-2.105968e+001	-2.000000e+002	0.000000e+000	-2.000000e+002	0.000000e+000
33899480.000	-1.469387e-001	-1.239375e+002	-5.243332e+001	-2.217249e+001	-2.000000e+002	0.000000e+000	-2.000000e+002	0.000000e+000
34549470.000	-1.556552e-001	-1.263643e+002	-5.172275e+001	-2.348793e+001	-2.000000e+002	0.000000e+000	-2.000000e+002	0.000000e+000
35199460.000	-1.648714e-001	-1.287999e+002	-5.098932e+001	-2.485117e+001	-2.000000e+002	0.000000e+000	-2.000000e+002	0.000000e+000
35849450.000	-1.740320e-001	-1.312355e+002	-5.000019e+001	-2.663791e+001	-2.000000e+002	0.000000e+000	-2.000000e+002	0.000000e+000
36499440.000	-1.829864e-001	-1.336744e+002	-4.897947e+001	-2.973524e+001	-2.000000e+002	0.000000e+000	-2.000000e+002	0.000000e+000
37149430.000	-1.913611e-001	-1.361199e+002	-4.803362e+001	-3.353450e+001	-2.000000e+002	0.000000e+000	-2.000000e+002	0.000000e+000
37799420.000	-2.002239e-001	-1.385705e+002	-4.708113e+001	-3.798479e+001	-2.000000e+002	0.000000e+000	-2.000000e+002	0.000000e+000
38449410.000	-2.083093e-001	-1.410249e+002	-4.603547e+001	-4.295632e+001	-2.000000e+002	0.000000e+000	-2.000000e+002	0.000000e+000
39099400.000	-2.163407e-001	-1.434938e+002	-4.508715e+001	-4.862390e+001	-2.000000e+002	0.000000e+000	-2.000000e+002	0.000000e+000
39749390.000	-2.245727e-001	-1.459794e+002	-4.420473e+001	-5.424627e+001	-2.000000e+002	0.000000e+000	-2.000000e+002	0.000000e+000
40399380.000	-2.348941e-001	-1.484859e+002	-4.327555e+001	-5.885374e+001	-2.000000e+002	0.000000e+000	-2.000000e+002	0.000000e+000
41049370.000	-2.473079e-001	-1.510097e+002	-4.204129e+001	-6.296105e+001	-2.000000e+002	0.000000e+000	-2.000000e+002	0.000000e+000
41699360.000	-2.629212e-001	-1.535635e+002	-4.042164e+001	-6.775978e+001	-2.000000e+002	0.000000e+000	-2.000000e+002	0.000000e+000
42349350.000	-2.840066e-001	-1.561747e+002	-3.833232e+001	-7.396157e+001	-2.000000e+002	0.000000e+000	-2.000000e+002	0.000000e+000
42999340.000	-3.223929e-001	-1.588884e+002	-3.553081e+001	-8.334415e+001	-2.000000e+002	0.000000e+000	-2.000000e+002	0.000000e+000
43649330.000	-4.222316e-001	-1.617481e+002	-3.164961e+001	-1.007293e+002	-2.000000e+002	0.000000e+000	-2.000000e+002	0.000000e+000
44299320.000	-7.146621e-001	-1.636132e+002	-2.729995e+001	-1.436565e+002	-2.000000e+002	0.000000e+000	-2.000000e+002	0.000000e+000
44949310.000	-5.641781e-001	-1.636435e+002	-2.947586e+001	1.552113e+002	-2.000000e+002	0.000000e+000	-2.000000e+002	0.000000e+000
45599300.000	-3.950319e-001	-1.663747e+002	-3.436872e+001	1.273703e+002	-2.000000e+002	0.000000e+000	-2.000000e+002	0.000000e+000
46249290.000	-3.525792e-001	-1.691522e+002	-3.812893e+001	1.136008e+002	-2.000000e+002	0.000000e+000	-2.000000e+002	0.000000e+000
46899280.000	-3.417206e-001	-1.717981e+002	-4.104094e+001	1.039809e+002	-2.000000e+002	0.000000e+000	-2.000000e+002	0.000000e+000
47549270.000	-3.404420e-001	-1.743640e+002	-4.354227e+001	9.613633e+001	-2.000000e+002	0.000000e+000	-2.000000e+002	0.000000e+000
48199260.000	-3.422967e-001	-1.768876e+002	-4.584231e+001	8.918096e+001	-2.000000e+002	0.000000e+000	-2.000000e+002	0.000000e+000
48849250.000	-3.457898e-001	-1.793884e+002	-4.797048e+001	8.336509e+001	-2.000000e+002	0.000000e+000	-2.000000e+002	0.000000e+000
49499240.000	-3.489479e-001	1.781242e+002	-5.007911e+001	7.831237e+001	-2.000000e+002	0.000000e+000	-2.000000e+002	0.000000e+000
50149230.000	-3.526905e-001	1.756389e+002	-5.197665e+001	7.404369e+001	-2.000000e+002	0.000000e+000	-2.000000e+002	0.000000e+000
50799220.000	-3.572827e-001	1.731603e+002	-5.371595e+001	7.046403e+001	-2.000000e+002	0.000000e+000	-2.000000e+002	0.000000e+000
51449210.000	-3.621857e-001	1.706800e+002	-5.533356e+001	6.659369e+001	-2.000000e+002	0.000000e+000	-2.000000e+002	0.000000e+000
52099200.000	-3.675211e-001	1.682108e+002	-5.685954e+001	6.153444e+001	-2.000000e+002	0.000000e+000	-2.000000e+002	0.000000e+000
52749190.000	-3.729017e-001	1.657443e+002	-5.852473e+001	5.554315e+001	-2.000000e+002	0.000000e+000	-2.000000e+002	0.000000e+000
53399180.000	-3.783913e-001	1.632804e+002	-6.032637e+001	4.886103e+001	-2.000000e+002	0.000000e+000	-2.000000e+002	0.000000e+000
54049170.000	-3.838826e-001	1.608187e+002	-6.194560e+001	4.372258e+001	-2.000000e+002	0.000000e+000	-2.000000e+002	0.000000e+000
54699160.000	-3.895606e-001	1.583569e+002	-6.369247e+001	3.600741e+001	-2.000000e+002	0.000000e+000	-2.000000e+002	0.000000e+000
55349150.000	-3.953985e-001	1.559015e+002	-6.502742e+001	2.647515e+001	-2.000000e+002	0.000000e+000	-2.000000e+002	0.000000e+000
55999140.000	-4.008416e-001	1.534458e+002	-6.640629e+001	1.372229e+001	-2.000000e+002	0.000000e+000	-2.000000e+002	0.000000e+000
56649130.000	-4.060145e-001	1.509943e+002	-6.736167e+001	-2.404910e+000	-2.000000e+002	0.000000e+000	-2.000000e+002	0.000000e+000
57299120.000	-4.114803e-001	1.485474e+002	-6.817627e+001	-1.920097e+001	-2.000000e+002	0.000000e+000	-2.000000e+002	0.000000e+000
57949110.000	-4.165175e-001	1.460983e+002	-6.811194e+001	-3.515545e+001	-2.000000e+002	0.000000e+000	-2.000000e+002	0.000000e+000
58599100.000	-4.209763e-001	1.436508e+002	-6.787745e+001	-5.155162e+001	-2.000000e+002	0.000000e+000	-2.000000e+002	0.000000e+000
59249090.000	-4.261724e-001	1.412081e+002	-6.687576e+001	-6.256197e+001	-2.000000e+002	0.000000e+000	-2.000000e+002	0.000000e+000
59899080.000	-4.305812e-001	1.387653e+002	-6.627259e+001	-7.304573e+001	-2.000000e+002	0.000000e+000	-2.000000e+002	0.000000e+000
60549070.000	-4.357341e-001	1.363303e+002	-6.554051e+001	-8.050274e+001	-2.000000e+002	0.000000e+000	-2.000000e+002	0.000000e+000
61199060.000	-4.403975e-001	1.338949e+002	-6.424385e+001	-8.412754e+001	-2.000000e+002	0.000000e+000	-2.000000e+002	0.000000e+000
61849050.000	-4.450862e-001	1.314614e+002	-6.293966e+001	-9.020751e+001	-2.000000e+002	0.000000e+000	-2.000000e+002	0.000000e+000
62499040.000	-4.494746e-001	1.290332e+002	-6.169943e+001	-9.617562e+001	-2.000000e+002	0.000000e+000	-2.000000e+002	0.000000e+000
63149030.000	-4.530594e-001	1.266073e+002	-6.053338e+001	-1.041967e+002	-2.000000e+002	0.000000e+000	-2.000000e+002	0.000000e+000
63799020.000	-4.562718e-001	1.241853e+002	-5.979444e+001	-1.125508e+002	-2.000000e+002	0.000000e+000	-2.000000e+002	0.000000e+000
64449010.000	-4.597604e-001	1.217639e+002	-5.915672e+001	-1.201458e+002	-2.000000e+002	0.000000e+000	-2.000000e+002	0.000000e+000
65099000.000	-4.620174e-001	1.193367e+002	-5.894823e+001	-1.268008e+002	-2.000000e+002	0.000000e+000	-2.000000e+002	0.000000e+000
65748990.000	-4.642764e-001	1.169121e+002	-5.878618e+001	-1.328728e+002	-2.000000e+002	0.000000e+000	-2.000000e+002	0.000000e+000
66398980.000	-4.670989e-001	1.144923e+002	-5.855780e+001	-1.372150e+002	-2.000000e+002	0.000000e+000	-2.000000e+002	0.000000e+000
67048970.000	-4.693714e-001	1.120728e+002	-5.851863e+001	-1.417750e+002	-2.000000e+002	0.000000e+000	-2.000000e+002	0.000000e+000
67698960.000	-4.718588e-001	1.096594e+002	-5.824141e+001	-1.447769e+002	-2.000000e+002	0.000000e+000	-2.000000e+002	0.000000e+000
68348950.000	-4.730121e-001	1.072400e+002	-5.822700e+001	-1.488832e+002	-2.000000e+002	0.000000e+000	-2.000000e+002	0.000000e+000
68998940.000	-4.758484e-001	1.048293e+002	-5.808320e+001	-1.518007e+002	-2.000000e+002	0.000000e+000	-2.000000e+002	0.000000e+000
69648930.000	-4.770138e-001	1.024186e+002	-5.797026e+001	-1.558697e+002	-2.000000e+002	0.000000e+000	-2.000000e+002	0.000000e+000
70298920.000	-4.788777e-001	9.999719e+001	-5.780954e+001	-1.577289e+002	-2.000000e+002	0.000000e+000	-2.000000e+002	0.000000e+000
70948910.000	-4.808211e-001	9.759061e+001	-5.770660e+001	-1.605427e+002	-2.000000e+002	0.000000e+000	-2.000000e+002	0.000000e+000
71598900.000	-4.818874e-001	9.518613e+001	-5.761701e+001	-1.622383e+002	-2.000000e+002	0.000000e+000	-2.000000e+002	0.000000e+000
72248890.000	-4.832572e-001	9.278348e+001	-5.741742e+001	-1.650983e+002	-2.000000e+002	0.000000e+000	-2.000000e+002	0.000000e+000
72898880.000	-4.844307e-001	9.038113e+001	-5.728932e+001	-1.676347e+002	-2.000000e+002	0.000000e+000	-2.000000e+002	0.000000e+000
73548870.000	-4.856997e-001	8.798384e+001	-5.721281e+001	-1.699923e+002	-2.000000e+002	0.000000e+000	-2.000000e+002	0.000000e+000
74198860.000	-4.867288e-001	8.558749e+001	-5.713082e+001	-1.722194e+002	-2.000000e+002	0.000000e+000	-2.000000e+002	0.000000e+000
74848850.000	-4.877091e-001	8.319725e+001	-5.695918e+001	-1.746935e+002	-2.000000e+002	0.000000e+000	-2.000000e+002	0.000000e+000
75498840.000	-4.877152e-001	8.080403e+001	-5.684574e+001	-1.766482e+002	-2.000000e+002	0.000000e+000	-2.000000e+002	0.000000e+000
76148830.000	-4.877449e-001	7.841350e+001	-5.675694e+001	-1.793463e+002	-2.000000e+002	0.000000e+000	-2.000000e+002	0.000000e+000
76798820.000	-4.871932e-001	7.602529e+001	-5.666116e+001	1.785220e+002	-2.000000e+002	0.000000e+000	-2.000000e+002	0.000000e+000
77448810.000	-4.875799e-001	7.365466e+001	-5.664775e+001	1.768216e+002	-2.000000e+002	0.000000e+000	-2.000000e+002	0.000000e+000
78098800.000	-4.880135e-001	7.127104e+001	-5.659057e+001	1.752892e+002	-2.000000e+002	0.000000e+000	-2.000000e+002	0.000000e+000
78748790.000	-4.874257e-001	6.889472e+001	-5.643487e+001	1.735868e+002	-2.000000e+002	0.000000e+000	-2.000000e+002	0.000000e+000
79398780.000	-4.870284e-001	6.651962e+001	-5.629861e+001	1.719942e+002	-2.000000e+002	0.000000e+000	-2.000000e+002	0.000000e+000
80048770.000	-4.861928e-001	6.413414e+001	-5.613085e+001	1.700675e+002	-2.000000e+002	0.000000e+000	-2.000000e+002	0.000000e+000
80698760.000	-4.851169e-001	6.176273e+001	-5.590566e+001	1.683694e+002	-2.000000e+002	0.000000e+000	-2.000000e+002	0.000000e+000
81348750.000	-4.835804e-001	5.938966e+001	-5.578157e+001	1.662258e+002	-2.000000e+002	0.000000e+000	-2.000000e+002	0.000000e+000
81998740.000	-4.822846e-001	5.702370e+001	-5.557923e+001	1.638857e+002	-2.000000e+002	0.000000e+000	-2.000000e+002	0.000000e+000
82648730.000	-4.808161e-001	5.466890e+001	-5.544558e+001	1.613601e+002	-2.000000e+002	0.000000e+000	-2.000000e+002	0.000000e+000
83298720.000	-4.794104e-001	5.230140e+001	-5.536460e+001	1.594345e+002	-2.000000e+002	0.000000e+000	-2.000000e+002	0.000000e+000
83948710.000	-4.772170e-001	4.993460e+001	-5.527861e+001	1.572561e+002	-2.000000e+002	0.000000e+000	-2.000000e+002	0.000000e+000
84598700.000	-4.754396e-001	4.756822e+001	-5.520026e+001	1.554483e+002	-2.000000e+002	0.000000e+000	-2.000000e+002	0.000000e+000
85248690.000	-4.735264e-001	4.520508e+001	-5.521104e+001	1.531996e+002	-2.000000e+002	0.000000e+000	-2.000000e+002	0.000000e+000
85898680.000	-4.718998e-001	4.284445e+001	-5.497153e+001	1.515390e+002	-2.000000e+002	0.000000e+000	-2.000000e+002	0.000000e+000
86548670.000	-4.690564e-001	4.048956e+001	-5.483216e+001	1.498786e+002	-2.000000e+002	0.000000e+000	-2.000000e+002	0.000000e+000
87198660.000	-4.668680e-001	3.813500e+001	-5.473595e+001	1.478044e+002	-2.000000e+002	0.000000e+000	-2.000000e+002	0.000000e+000
87848650.000	-4.646418e-001	3.578639e+001	-5.459794e+001	1.453888e+002	-2.000000e+002	0.000000e+000	-2.000000e+002	0.000000e+000
88498640.000	-4.618784e-001	3.343178e+001	-5.453358e+001	1.440733e+002	-2.000000e+002	0.000000e+000	-2.000000e+002	0.000000e+000
89148630.000	-4.598853e-001	3.108449e+001	-5.441213e+001	1.419401e+002	-2.000000e+002	0.000000e+000	-2.000000e+002	0.000000e+000
89798620.000	-4.572577e-001	2.873333e+001	-5.434746e+001	1.403581e+002	-2.000000e+002	0.000000e+000	-2.000000e+002	0.000000e+000
90448610.000	-4.547287e-001	2.638279e+001	-5.420753e+001	1.390368e+002	-2.000000e+002	0.000000e+000	-2.000000e+002	0.000000e+000
91098600.000	-4.524511e-001	2.403016e+001	-5.404192e+001	1.365964e+002	-2.000000e+002	0.000000e+000	-2.000000e+002	0.000000e+000
91748590.000	-4.496093e-001	2.168079e+001	-5.388031e+001	1.347604e+002	-2.000000e+002	0.000000e+000	-2.000000e+002	0.000000e+000
92398580.000	-4.465496e-001	1.933636e+001	-5.381901e+001	1.324450e+002	-2.000000e+002	0.000000e+000	-2.000000e+002	0.000000e+000
93048570.000	-4.437385e-001	1.698815e+001	-5.377179e+001	1.311577e+002	-2.000000e+002	0.000000e+000	-2.000000e+002	0.000000e+000
93698560.000	-4.412291e-001	1.464427e+001	-5.368339e+001	1.287983e+002	-2.000000e+002	0.000000e+000	-2.000000e+002	0.000000e+000
94348550.000	-4.384981e-001	1.229844e+001	-5.365076e+001	1.271980e+002	-2.000000e+002	0.000000e+000	-2.000000e+002	0.000000e+000
94998540.000	-4.364080e-001	9.951496e+000	-5.353558e+001	1.266367e+002	-2.000000e+002	0.000000e+000	-2.000000e+002	0.000000e+000
95648530.000	-4.332939e-001	7.615964e+000	-5.344429e+001	1.241657e+002	-2.000000e+002	0.000000e+000	-2.000000e+002	0.000000e+000
96298520.000	-4.300889e-001	5.279750e+000	-5.333347e+001	1.224064e+002	-2.000000e+002	0.000000e+000	-2.000000e+002	0.000000e+000
96948510.000	-4.273944e-001	2.942779e+000	-5.326773e+001	1.206998e+002	-2.000000e+002	0.000000e+000	-2.000000e+002	0.000000e+000
97598500.000	-4.254408e-001	6.022790e-001	-5.322134e+001	1.193429e+002	-2.000000e+002	0.000000e+000	-2.000000e+002	0.000000e+000
98248490.000	-4.223909e-001	-1.737001e+000	-5.326474e+001	1.188247e+002	-2.000000e+002	0.000000e+000	-2.000000e+002	0.000000e+000
