!Keysight Technologies,E5063A,MY54503115,A.05.08
!Date: Mon Mar 04 15:39:56 2024
!Data & Calibration Information:
!Freq	S11:NONE(--)	S21:NONE(--)	S12:NONE(--)	S22:NONE(--)
# Hz S dB R 50
100000.000	4.971920e-002	-9.329442e-001	-8.505244e+001	6.107822e+001	-2.000000e+002	0.000000e+000	-2.000000e+002	0.000000e+000
749990.000	1.851805e-003	-3.048361e+000	-9.109403e+001	-1.226964e+002	-2.000000e+002	0.000000e+000	-2.000000e+002	0.000000e+000
1399980.000	2.770208e-003	-5.352305e+000	-8.846529e+001	1.658417e+002	-2.000000e+002	0.000000e+000	-2.000000e+002	0.000000e+000
2049970.000	2.428297e-003	-7.660983e+000	-8.050992e+001	1.256251e+002	-2.000000e+002	0.000000e+000	-2.000000e+002	0.000000e+000
2699960.000	3.265078e-003	-9.998092e+000	-8.031123e+001	9.689729e+001	-2.000000e+002	0.000000e+000	-2.000000e+002	0.000000e+000
3349950.000	5.254065e-003	-1.233768e+001	-7.513179e+001	9.486455e+001	-2.000000e+002	0.000000e+000	-2.000000e+002	0.000000e+000
3999940.000	5.473678e-003	-1.466309e+001	-7.777024e+001	7.254767e+001	-2.000000e+002	0.000000e+000	-2.000000e+002	0.000000e+000
4649930.000	6.675701e-003	-1.700789e+001	-7.520026e+001	8.017167e+001	-2.000000e+002	0.000000e+000	-2.000000e+002	0.000000e+000
5299920.000	7.042994e-003	-1.933148e+001	-7.419383e+001	8.074569e+001	-2.000000e+002	0.000000e+000	-2.000000e+002	0.000000e+000
5949910.000	6.248812e-003	-2.167140e+001	-7.072675e+001	7.490808e+001	-2.000000e+002	0.000000e+000	-2.000000e+002	0.000000e+000
6599900.000	6.766260e-003	-2.400884e+001	-7.236539e+001	7.520211e+001	-2.000000e+002	0.000000e+000	-2.000000e+002	0.000000e+000
7249890.000	6.928726e-003	-2.634799e+001	-7.017774e+001	6.704938e+001	-2.000000e+002	0.000000e+000	-2.000000e+002	0.000000e+000
7899880.000	6.067514e-003	-2.869538e+001	-6.893482e+001	6.898386e+001	-2.000000e+002	0.000000e+000	-2.000000e+002	0.000000e+000
8549870.000	8.832656e-003	-3.104782e+001	-6.921128e+001	6.424086e+001	-2.000000e+002	0.000000e+000	-2.000000e+002	0.000000e+000
9199860.000	7.910570e-003	-3.339258e+001	-6.848932e+001	6.322175e+001	-2.000000e+002	0.000000e+000	-2.000000e+002	0.000000e+000
9849850.000	7.272893e-003	-3.573650e+001	-6.777293e+001	5.971870e+001	-2.000000e+002	0.000000e+000	-2.000000e+002	0.000000e+000
10499840.000	6.414674e-003	-3.807359e+001	-6.710458e+001	5.731534e+001	-2.000000e+002	0.000000e+000	-2.000000e+002	0.000000e+000
11149830.000	4.014569e-003	-4.041570e+001	-6.668629e+001	5.399329e+001	-2.000000e+002	0.000000e+000	-2.000000e+002	0.000000e+000
11799820.000	2.537288e-003	-4.276309e+001	-6.615915e+001	5.196883e+001	-2.000000e+002	0.000000e+000	-2.000000e+002	0.000000e+000
12449810.000	2.828809e-003	-4.511848e+001	-6.556041e+001	4.992491e+001	-2.000000e+002	0.000000e+000	-2.000000e+002	0.000000e+000
13099800.000	3.055032e-003	-4.747693e+001	-6.508111e+001	4.712284e+001	-2.000000e+002	0.000000e+000	-2.000000e+002	0.000000e+000
13749790.000	2.761547e-004	-4.982954e+001	-6.464124e+001	4.573712e+001	-2.000000e+002	0.000000e+000	-2.000000e+002	0.000000e+000
14399780.000	-1.069194e-003	-5.218815e+001	-6.420129e+001	4.319392e+001	-2.000000e+002	0.000000e+000	-2.000000e+002	0.000000e+000
15049770.000	-3.161884e-003	-5.455477e+001	-6.386218e+001	4.057928e+001	-2.000000e+002	0.000000e+000	-2.000000e+002	0.000000e+000
15699760.000	-3.906580e-003	-5.689732e+001	-6.348204e+001	3.782904e+001	-2.000000e+002	0.000000e+000	-2.000000e+002	0.000000e+000
16349750.000	-6.386479e-003	-5.925600e+001	-6.296460e+001	3.719742e+001	-2.000000e+002	0.000000e+000	-2.000000e+002	0.000000e+000
16999740.000	-1.012504e-002	-6.162824e+001	-6.254807e+001	3.425811e+001	-2.000000e+002	0.000000e+000	-2.000000e+002	0.000000e+000
17649730.000	-6.443809e-003	-6.399882e+001	-6.212834e+001	3.369384e+001	-2.000000e+002	0.000000e+000	-2.000000e+002	0.000000e+000
18299720.000	-7.033667e-003	-6.636840e+001	-6.151864e+001	3.206310e+001	-2.000000e+002	0.000000e+000	-2.000000e+002	0.000000e+000
18949710.000	-1.066049e-002	-6.873668e+001	-6.105305e+001	2.928775e+001	-2.000000e+002	0.000000e+000	-2.000000e+002	0.000000e+000
19599700.000	-1.927548e-002	-7.110089e+001	-6.069890e+001	2.617943e+001	-2.000000e+002	0.000000e+000	-2.000000e+002	0.000000e+000
20249690.000	-2.529350e-002	-7.346683e+001	-6.024311e+001	2.301325e+001	-2.000000e+002	0.000000e+000	-2.000000e+002	0.000000e+000
20899680.000	-2.865347e-002	-7.586792e+001	-5.989781e+001	2.016079e+001	-2.000000e+002	0.000000e+000	-2.000000e+002	0.000000e+000
21549670.000	-3.222646e-002	-7.825165e+001	-5.956020e+001	1.726468e+001	-2.000000e+002	0.000000e+000	-2.000000e+002	0.000000e+000
22199660.000	-3.600583e-002	-8.062505e+001	-5.929586e+001	1.459785e+001	-2.000000e+002	0.000000e+000	-2.000000e+002	0.000000e+000
22849650.000	-3.950101e-002	-8.298717e+001	-5.897876e+001	1.335262e+001	-2.000000e+002	0.000000e+000	-2.000000e+002	0.000000e+000
23499640.000	-4.464553e-002	-8.537486e+001	-5.866082e+001	1.077135e+001	-2.000000e+002	0.000000e+000	-2.000000e+002	0.000000e+000
24149630.000	-5.018040e-002	-8.777208e+001	-5.830835e+001	8.681767e+000	-2.000000e+002	0.000000e+000	-2.000000e+002	0.000000e+000
24799620.000	-5.548747e-002	-9.016516e+001	-5.788273e+001	6.892182e+000	-2.000000e+002	0.000000e+000	-2.000000e+002	0.000000e+000
25449610.000	-5.915734e-002	-9.255154e+001	-5.743310e+001	4.620793e+000	-2.000000e+002	0.000000e+000	-2.000000e+002	0.000000e+000
26099600.000	-6.462723e-002	-9.494811e+001	-5.701871e+001	2.246613e+000	-2.000000e+002	0.000000e+000	-2.000000e+002	0.000000e+000
26749590.000	-7.128919e-002	-9.734568e+001	-5.660555e+001	-4.419079e-001	-2.000000e+002	0.000000e+000	-2.000000e+002	0.000000e+000
27399580.000	-7.724404e-002	-9.975177e+001	-5.620871e+001	-4.398484e+000	-2.000000e+002	0.000000e+000	-2.000000e+002	0.000000e+000
28049570.000	-8.258091e-002	-1.021553e+002	-5.598686e+001	-7.316432e+000	-2.000000e+002	0.000000e+000	-2.000000e+002	0.000000e+000
28699560.000	-8.914915e-002	-1.045614e+002	-5.568934e+001	-1.003357e+001	-2.000000e+002	0.000000e+000	-2.000000e+002	0.000000e+000
29349550.000	-9.608113e-002	-1.069725e+002	-5.544621e+001	-1.289610e+001	-2.000000e+002	0.000000e+000	-2.000000e+002	0.000000e+000
29999540.000	-1.028237e-001	-1.093859e+002	-5.524280e+001	-1.477139e+001	-2.000000e+002	0.000000e+000	-2.000000e+002	0.000000e+000
30649530.000	-1.099810e-001	-1.118089e+002	-5.504591e+001	-1.651064e+001	-2.000000e+002	0.000000e+000	-2.000000e+002	0.000000e+000
31299520.000	-1.167359e-001	-1.142299e+002	-5.475981e+001	-1.739361e+001	-2.000000e+002	0.000000e+000	-2.000000e+002	0.000000e+000
31949510.000	-1.248254e-001	-1.166562e+002	-5.434555e+001	-1.747850e+001	-2.000000e+002	0.000000e+000	-2.000000e+002	0.000000e+000
32599500.000	-1.332775e-001	-1.190828e+002	-5.366695e+001	-1.842002e+001	-2.000000e+002	0.000000e+000	-2.000000e+002	0.000000e+000
33249490.000	-1.412288e-001	-1.215083e+002	-5.304321e+001	-2.046034e+001	-2.000000e+002	0.000000e+000	-2.000000e+002	0.000000e+000
33899480.000	-1.495231e-001	-1.239403e+002	-5.243413e+001	-2.287781e+001	-2.000000e+002	0.000000e+000	-2.000000e+002	0.000000e+000
34549470.000	-1.581263e-001	-1.263734e+002	-5.190808e+001	-2.512987e+001	-2.000000e+002	0.000000e+000	-2.000000e+002	0.000000e+000
35199460.000	-1.668091e-001	-1.288132e+002	-5.140836e+001	-2.710612e+001	-2.000000e+002	0.000000e+000	-2.000000e+002	0.000000e+000
35849450.000	-1.763404e-001	-1.312561e+002	-5.068666e+001	-2.736215e+001	-2.000000e+002	0.000000e+000	-2.000000e+002	0.000000e+000
36499440.000	-1.860473e-001	-1.336995e+002	-4.965138e+001	-2.856943e+001	-2.000000e+002	0.000000e+000	-2.000000e+002	0.000000e+000
37149430.000	-1.956719e-001	-1.361469e+002	-4.856792e+001	-3.125657e+001	-2.000000e+002	0.000000e+000	-2.000000e+002	0.000000e+000
37799420.000	-2.050441e-001	-1.385992e+002	-4.741262e+001	-3.449716e+001	-2.000000e+002	0.000000e+000	-2.000000e+002	0.000000e+000
38449410.000	-2.144629e-001	-1.410527e+002	-4.608058e+001	-3.867651e+001	-2.000000e+002	0.000000e+000	-2.000000e+002	0.000000e+000
39099400.000	-2.232883e-001	-1.435237e+002	-4.474957e+001	-4.588121e+001	-2.000000e+002	0.000000e+000	-2.000000e+002	0.000000e+000
39749390.000	-2.339102e-001	-1.460149e+002	-4.392141e+001	-5.298580e+001	-2.000000e+002	0.000000e+000	-2.000000e+002	0.000000e+000
40399380.000	-2.463187e-001	-1.485134e+002	-4.288023e+001	-5.765303e+001	-2.000000e+002	0.000000e+000	-2.000000e+002	0.000000e+000
41049370.000	-2.607797e-001	-1.510349e+002	-4.149113e+001	-6.299020e+001	-2.000000e+002	0.000000e+000	-2.000000e+002	0.000000e+000
41699360.000	-2.796451e-001	-1.535892e+002	-3.979724e+001	-6.934946e+001	-2.000000e+002	0.000000e+000	-2.000000e+002	0.000000e+000
42349350.000	-3.092165e-001	-1.561982e+002	-3.765387e+001	-7.739848e+001	-2.000000e+002	0.000000e+000	-2.000000e+002	0.000000e+000
42999340.000	-3.652745e-001	-1.588630e+002	-3.484740e+001	-8.939025e+001	-2.000000e+002	0.000000e+000	-2.000000e+002	0.000000e+000
43649330.000	-4.948038e-001	-1.614290e+002	-3.120897e+001	-1.115442e+002	-2.000000e+002	0.000000e+000	-2.000000e+002	0.000000e+000
44299320.000	-6.673675e-001	-1.625339e+002	-2.849576e+001	-1.574353e+002	-2.000000e+002	0.000000e+000	-2.000000e+002	0.000000e+000
44949310.000	-4.776828e-001	-1.637613e+002	-3.112842e+001	1.538708e+002	-2.000000e+002	0.000000e+000	-2.000000e+002	0.000000e+000
45599300.000	-3.657322e-001	-1.665092e+002	-3.522285e+001	1.289867e+002	-2.000000e+002	0.000000e+000	-2.000000e+002	0.000000e+000
46249290.000	-3.363027e-001	-1.692419e+002	-3.857354e+001	1.151726e+002	-2.000000e+002	0.000000e+000	-2.000000e+002	0.000000e+000
46899280.000	-3.299514e-001	-1.718674e+002	-4.127554e+001	1.053971e+002	-2.000000e+002	0.000000e+000	-2.000000e+002	0.000000e+000
47549270.000	-3.313290e-001	-1.744241e+002	-4.360323e+001	9.698094e+001	-2.000000e+002	0.000000e+000	-2.000000e+002	0.000000e+000
48199260.000	-3.352353e-001	-1.769450e+002	-4.573011e+001	8.958693e+001	-2.000000e+002	0.000000e+000	-2.000000e+002	0.000000e+000
48849250.000	-3.400410e-001	-1.794393e+002	-4.779449e+001	8.281429e+001	-2.000000e+002	0.000000e+000	-2.000000e+002	0.000000e+000
49499240.000	-3.446577e-001	1.780765e+002	-4.983189e+001	7.746512e+001	-2.000000e+002	0.000000e+000	-2.000000e+002	0.000000e+000
50149230.000	-3.495637e-001	1.755958e+002	-5.165044e+001	7.300252e+001	-2.000000e+002	0.000000e+000	-2.000000e+002	0.000000e+000
50799220.000	-3.547390e-001	1.731227e+002	-5.328070e+001	6.883809e+001	-2.000000e+002	0.000000e+000	-2.000000e+002	0.000000e+000
51449210.000	-3.602049e-001	1.706478e+002	-5.485545e+001	6.475064e+001	-2.000000e+002	0.000000e+000	-2.000000e+002	0.000000e+000
52099200.000	-3.656339e-001	1.681814e+002	-5.637598e+001	6.042902e+001	-2.000000e+002	0.000000e+000	-2.000000e+002	0.000000e+000
52749190.000	-3.711307e-001	1.657167e+002	-5.781774e+001	5.475989e+001	-2.000000e+002	0.000000e+000	-2.000000e+002	0.000000e+000
53399180.000	-3.766957e-001	1.632549e+002	-5.935884e+001	4.884213e+001	-2.000000e+002	0.000000e+000	-2.000000e+002	0.000000e+000
54049170.000	-3.822941e-001	1.607931e+002	-6.076360e+001	4.309185e+001	-2.000000e+002	0.000000e+000	-2.000000e+002	0.000000e+000
54699160.000	-3.880899e-001	1.583360e+002	-6.218782e+001	3.722816e+001	-2.000000e+002	0.000000e+000	-2.000000e+002	0.000000e+000
55349150.000	-3.939295e-001	1.558802e+002	-6.334390e+001	2.911114e+001	-2.000000e+002	0.000000e+000	-2.000000e+002	0.000000e+000
55999140.000	-3.996237e-001	1.534278e+002	-6.425970e+001	1.872584e+001	-2.000000e+002	0.000000e+000	-2.000000e+002	0.000000e+000
56649130.000	-4.050857e-001	1.509776e+002	-6.524967e+001	4.998081e+000	-2.000000e+002	0.000000e+000	-2.000000e+002	0.000000e+000
57299120.000	-4.102017e-001	1.485305e+002	-6.616788e+001	-8.151985e+000	-2.000000e+002	0.000000e+000	-2.000000e+002	0.000000e+000
57949110.000	-4.156360e-001	1.460857e+002	-6.668261e+001	-2.293360e+001	-2.000000e+002	0.000000e+000	-2.000000e+002	0.000000e+000
58599100.000	-4.202150e-001	1.436375e+002	-6.671941e+001	-3.594647e+001	-2.000000e+002	0.000000e+000	-2.000000e+002	0.000000e+000
59249090.000	-4.251338e-001	1.411980e+002	-6.658657e+001	-4.906477e+001	-2.000000e+002	0.000000e+000	-2.000000e+002	0.000000e+000
59899080.000	-4.297118e-001	1.387566e+002	-6.612258e+001	-5.999819e+001	-2.000000e+002	0.000000e+000	-2.000000e+002	0.000000e+000
60549070.000	-4.346746e-001	1.363214e+002	-6.540117e+001	-6.787493e+001	-2.000000e+002	0.000000e+000	-2.000000e+002	0.000000e+000
61199060.000	-4.394923e-001	1.338897e+002	-6.454434e+001	-7.476182e+001	-2.000000e+002	0.000000e+000	-2.000000e+002	0.000000e+000
61849050.000	-4.436230e-001	1.314575e+002	-6.335632e+001	-8.039018e+001	-2.000000e+002	0.000000e+000	-2.000000e+002	0.000000e+000
62499040.000	-4.480578e-001	1.290296e+002	-6.234252e+001	-8.864856e+001	-2.000000e+002	0.000000e+000	-2.000000e+002	0.000000e+000
63149030.000	-4.517350e-001	1.266027e+002	-6.138176e+001	-9.778754e+001	-2.000000e+002	0.000000e+000	-2.000000e+002	0.000000e+000
63799020.000	-4.550379e-001	1.241794e+002	-6.085540e+001	-1.072481e+002	-2.000000e+002	0.000000e+000	-2.000000e+002	0.000000e+000
64449010.000	-4.587408e-001	1.217586e+002	-6.038928e+001	-1.150326e+002	-2.000000e+002	0.000000e+000	-2.000000e+002	0.000000e+000
65099000.000	-4.607607e-001	1.193308e+002	-6.021825e+001	-1.208233e+002	-2.000000e+002	0.000000e+000	-2.000000e+002	0.000000e+000
65748990.000	-4.634383e-001	1.169061e+002	-6.014368e+001	-1.265980e+002	-2.000000e+002	0.000000e+000	-2.000000e+002	0.000000e+000
66398980.000	-4.663699e-001	1.144888e+002	-5.992809e+001	-1.306730e+002	-2.000000e+002	0.000000e+000	-2.000000e+002	0.000000e+000
67048970.000	-4.688570e-001	1.120672e+002	-5.984819e+001	-1.345033e+002	-2.000000e+002	0.000000e+000	-2.000000e+002	0.000000e+000
67698960.000	-4.718155e-001	1.096556e+002	-5.955276e+001	-1.384289e+002	-2.000000e+002	0.000000e+000	-2.000000e+002	0.000000e+000
68348950.000	-4.728719e-001	1.072431e+002	-5.933804e+001	-1.422659e+002	-2.000000e+002	0.000000e+000	-2.000000e+002	0.000000e+000
68998940.000	-4.756087e-001	1.048302e+002	-5.919417e+001	-1.463083e+002	-2.000000e+002	0.000000e+000	-2.000000e+002	0.000000e+000
69648930.000	-4.771646e-001	1.024188e+002	-5.908306e+001	-1.495390e+002	-2.000000e+002	0.000000e+000	-2.000000e+002	0.000000e+000
70298920.000	-4.794388e-001	1.000052e+002	-5.902407e+001	-1.523435e+002	-2.000000e+002	0.000000e+000	-2.000000e+002	0.000000e+000
70948910.000	-4.816429e-001	9.759493e+001	-5.898195e+001	-1.547961e+002	-2.000000e+002	0.000000e+000	-2.000000e+002	0.000000e+000
71598900.000	-4.828414e-001	9.518906e+001	-5.887589e+001	-1.567296e+002	-2.000000e+002	0.000000e+000	-2.000000e+002	0.000000e+000
72248890.000	-4.844775e-001	9.278806e+001	-5.871943e+001	-1.591855e+002	-2.000000e+002	0.000000e+000	-2.000000e+002	0.000000e+000
72898880.000	-4.859286e-001	9.038802e+001	-5.857102e+001	-1.619545e+002	-2.000000e+002	0.000000e+000	-2.000000e+002	0.000000e+000
73548870.000	-4.872950e-001	8.799107e+001	-5.853324e+001	-1.638774e+002	-2.000000e+002	0.000000e+000	-2.000000e+002	0.000000e+000
74198860.000	-4.881590e-001	8.559721e+001	-5.839283e+001	-1.658688e+002	-2.000000e+002	0.000000e+000	-2.000000e+002	0.000000e+000
74848850.000	-4.891081e-001	8.320244e+001	-5.827893e+001	-1.680740e+002	-2.000000e+002	0.000000e+000	-2.000000e+002	0.000000e+000
75498840.000	-4.896161e-001	8.081115e+001	-5.812536e+001	-1.704590e+002	-2.000000e+002	0.000000e+000	-2.000000e+002	0.000000e+000
76148830.000	-4.899229e-001	7.842152e+001	-5.812047e+001	-1.726818e+002	-2.000000e+002	0.000000e+000	-2.000000e+002	0.000000e+000
76798820.000	-4.894349e-001	7.603264e+001	-5.803329e+001	-1.742133e+002	-2.000000e+002	0.000000e+000	-2.000000e+002	0.000000e+000
77448810.000	-4.899309e-001	7.366338e+001	-5.797810e+001	-1.757045e+002	-2.000000e+002	0.000000e+000	-2.000000e+002	0.000000e+000
78098800.000	-4.906062e-001	7.128043e+001	-5.791152e+001	-1.765513e+002	-2.000000e+002	0.000000e+000	-2.000000e+002	0.000000e+000
78748790.000	-4.902874e-001	6.890603e+001	-5.764060e+001	-1.773043e+002	-2.000000e+002	0.000000e+000	-2.000000e+002	0.000000e+000
79398780.000	-4.893726e-001	6.653156e+001	-5.736956e+001	-1.786955e+002	-2.000000e+002	0.000000e+000	-2.000000e+002	0.000000e+000
80048770.000	-4.896030e-001	6.414805e+001	-5.701381e+001	1.795871e+002	-2.000000e+002	0.000000e+000	-2.000000e+002	0.000000e+000
80698760.000	-4.884448e-001	6.178054e+001	-5.671000e+001	1.770764e+002	-2.000000e+002	0.000000e+000	-2.000000e+002	0.000000e+000
81348750.000	-4.872899e-001	5.940675e+001	-5.650427e+001	1.745414e+002	-2.000000e+002	0.000000e+000	-2.000000e+002	0.000000e+000
81998740.000	-4.856103e-001	5.703819e+001	-5.626092e+001	1.713767e+002	-2.000000e+002	0.000000e+000	-2.000000e+002	0.000000e+000
82648730.000	-4.833876e-001	5.468694e+001	-5.621553e+001	1.683668e+002	-2.000000e+002	0.000000e+000	-2.000000e+002	0.000000e+000
83298720.000	-4.823623e-001	5.231830e+001	-5.616521e+001	1.662642e+002	-2.000000e+002	0.000000e+000	-2.000000e+002	0.000000e+000
83948710.000	-4.801350e-001	4.995210e+001	-5.611417e+001	1.640743e+002	-2.000000e+002	0.000000e+000	-2.000000e+002	0.000000e+000
84598700.000	-4.786320e-001	4.758640e+001	-5.601697e+001	1.621842e+002	-2.000000e+002	0.000000e+000	-2.000000e+002	0.000000e+000
85248690.000	-4.767406e-001	4.522205e+001	-5.605246e+001	1.601523e+002	-2.000000e+002	0.000000e+000	-2.000000e+002	0.000000e+000
85898680.000	-4.754078e-001	4.286411e+001	-5.583824e+001	1.586421e+002	-2.000000e+002	0.000000e+000	-2.000000e+002	0.000000e+000
86548670.000	-4.723495e-001	4.050633e+001	-5.564734e+001	1.567369e+002	-2.000000e+002	0.000000e+000	-2.000000e+002	0.000000e+000
87198660.000	-4.707218e-001	3.815344e+001	-5.559345e+001	1.545686e+002	-2.000000e+002	0.000000e+000	-2.000000e+002	0.000000e+000
87848650.000	-4.680156e-001	3.580099e+001	-5.548344e+001	1.524055e+002	-2.000000e+002	0.000000e+000	-2.000000e+002	0.000000e+000
88498640.000	-4.655440e-001	3.344988e+001	-5.540640e+001	1.511771e+002	-2.000000e+002	0.000000e+000	-2.000000e+002	0.000000e+000
89148630.000	-4.640997e-001	3.109954e+001	-5.528248e+001	1.492793e+002	-2.000000e+002	0.000000e+000	-2.000000e+002	0.000000e+000
89798620.000	-4.608343e-001	2.874874e+001	-5.514574e+001	1.471600e+002	-2.000000e+002	0.000000e+000	-2.000000e+002	0.000000e+000
90448610.000	-4.588458e-001	2.639900e+001	-5.503177e+001	1.454438e+002	-2.000000e+002	0.000000e+000	-2.000000e+002	0.000000e+000
91098600.000	-4.568082e-001	2.404728e+001	-5.490703e+001	1.434616e+002	-2.000000e+002	0.000000e+000	-2.000000e+002	0.000000e+000
91748590.000	-4.534712e-001	2.169611e+001	-5.481093e+001	1.414381e+002	-2.000000e+002	0.000000e+000	-2.000000e+002	0.000000e+000
92398580.000	-4.507490e-001	1.934882e+001	-5.469728e+001	1.396112e+002	-2.000000e+002	0.000000e+000	-2.000000e+002	0.000000e+000
93048570.000	-4.485853e-001	1.700037e+001	-5.490171e+001	1.370779e+002	-2.000000e+002	0.000000e+000	-2.000000e+002	0.000000e+000
93698560.000	-4.454074e-001	1.465372e+001	-5.464750e+001	1.359918e+002	-2.000000e+002	0.000000e+000	-2.000000e+002	0.000000e+000
94348550.000	-4.425374e-001	1.231046e+001	-5.462653e+001	1.341570e+002	-2.000000e+002	0.000000e+000	-2.000000e+002	0.000000e+000
94998540.000	-4.408375e-001	9.966150e+000	-5.464283e+001	1.347890e+002	-2.000000e+002	0.000000e+000	-2.000000e+002	0.000000e+000
95648530.000	-4.376666e-001	7.626633e+000	-5.450518e+001	1.316111e+002	-2.000000e+002	0.000000e+000	-2.000000e+002	0.000000e+000
96298520.000	-4.346657e-001	5.288270e+000	-5.449687e+001	1.309550e+002	-2.000000e+002	0.000000e+000	-2.000000e+002	0.000000e+000
96948510.000	-4.323401e-001	2.948003e+000	-5.453618e+001	1.298968e+002	-2.000000e+002	0.000000e+000	-2.000000e+002	0.000000e+000
97598500.000	-4.303063e-001	6.097180e-001	-5.451177e+001	1.298293e+002	-2.000000e+002	0.000000e+000	-2.000000e+002	0.000000e+000
98248490.000	-4.274208e-001	-1.734302e+000	-5.440716e+001	1.306560e+002	-2.000000e+002	0.000000e+000	-2.000000e+002	0.000000e+000
