!Keysight Technologies,E5063A,MY54503115,A.05.08
!Date: Mon Mar 04 16:08:41 2024
!Data & Calibration Information:
!Freq	S11:NONE(--)	S21:NONE(--)	S12:NONE(--)	S22:NONE(--)
# Hz S dB R 50
100000.000	4.724625e-002	-8.978351e-001	-9.156669e+001	-2.446537e+001	-2.000000e+002	0.000000e+000	-2.000000e+002	0.000000e+000
749990.000	5.157869e-003	-3.073788e+000	-8.863917e+001	-1.494065e+002	-2.000000e+002	0.000000e+000	-2.000000e+002	0.000000e+000
1399980.000	6.443090e-003	-5.380339e+000	-8.797724e+001	1.156801e+002	-2.000000e+002	0.000000e+000	-2.000000e+002	0.000000e+000
2049970.000	5.976102e-003	-7.700441e+000	-7.986814e+001	1.442652e+002	-2.000000e+002	0.000000e+000	-2.000000e+002	0.000000e+000
2699960.000	6.895259e-003	-1.003496e+001	-7.912763e+001	8.512551e+001	-2.000000e+002	0.000000e+000	-2.000000e+002	0.000000e+000
3349950.000	9.986960e-003	-1.237279e+001	-7.632179e+001	9.019443e+001	-2.000000e+002	0.000000e+000	-2.000000e+002	0.000000e+000
3999940.000	9.217330e-003	-1.470061e+001	-7.655614e+001	8.190866e+001	-2.000000e+002	0.000000e+000	-2.000000e+002	0.000000e+000
4649930.000	1.093557e-002	-1.703787e+001	-7.456898e+001	7.516790e+001	-2.000000e+002	0.000000e+000	-2.000000e+002	0.000000e+000
5299920.000	1.029688e-002	-1.936332e+001	-7.330418e+001	8.144785e+001	-2.000000e+002	0.000000e+000	-2.000000e+002	0.000000e+000
5949910.000	9.967145e-003	-2.170725e+001	-7.095612e+001	6.836269e+001	-2.000000e+002	0.000000e+000	-2.000000e+002	0.000000e+000
6599900.000	9.599976e-003	-2.404636e+001	-7.014112e+001	6.775094e+001	-2.000000e+002	0.000000e+000	-2.000000e+002	0.000000e+000
7249890.000	1.050245e-002	-2.638346e+001	-7.138517e+001	6.951440e+001	-2.000000e+002	0.000000e+000	-2.000000e+002	0.000000e+000
7899880.000	9.566458e-003	-2.873131e+001	-6.869385e+001	7.385258e+001	-2.000000e+002	0.000000e+000	-2.000000e+002	0.000000e+000
8549870.000	1.307420e-002	-3.107675e+001	-6.854385e+001	6.212055e+001	-2.000000e+002	0.000000e+000	-2.000000e+002	0.000000e+000
9199860.000	1.230566e-002	-3.341919e+001	-6.762809e+001	6.129863e+001	-2.000000e+002	0.000000e+000	-2.000000e+002	0.000000e+000
9849850.000	1.164854e-002	-3.576385e+001	-6.700702e+001	5.896978e+001	-2.000000e+002	0.000000e+000	-2.000000e+002	0.000000e+000
10499840.000	9.982346e-003	-3.810520e+001	-6.659521e+001	5.496918e+001	-2.000000e+002	0.000000e+000	-2.000000e+002	0.000000e+000
11149830.000	7.178383e-003	-4.044727e+001	-6.618469e+001	5.147383e+001	-2.000000e+002	0.000000e+000	-2.000000e+002	0.000000e+000
11799820.000	6.346177e-003	-4.279103e+001	-6.540876e+001	5.019254e+001	-2.000000e+002	0.000000e+000	-2.000000e+002	0.000000e+000
12449810.000	6.581457e-003	-4.514372e+001	-6.493515e+001	4.752948e+001	-2.000000e+002	0.000000e+000	-2.000000e+002	0.000000e+000
13099800.000	7.348384e-003	-4.749861e+001	-6.459746e+001	4.584199e+001	-2.000000e+002	0.000000e+000	-2.000000e+002	0.000000e+000
13749790.000	4.917144e-003	-4.984430e+001	-6.399464e+001	4.257984e+001	-2.000000e+002	0.000000e+000	-2.000000e+002	0.000000e+000
14399780.000	2.605648e-003	-5.220612e+001	-6.350288e+001	4.029633e+001	-2.000000e+002	0.000000e+000	-2.000000e+002	0.000000e+000
15049770.000	1.549599e-003	-5.456658e+001	-6.315661e+001	3.833640e+001	-2.000000e+002	0.000000e+000	-2.000000e+002	0.000000e+000
15699760.000	1.149874e-003	-5.691138e+001	-6.277806e+001	3.569364e+001	-2.000000e+002	0.000000e+000	-2.000000e+002	0.000000e+000
16349750.000	-1.106896e-003	-5.926621e+001	-6.238264e+001	3.394791e+001	-2.000000e+002	0.000000e+000	-2.000000e+002	0.000000e+000
16999740.000	-3.963764e-003	-6.163845e+001	-6.223146e+001	2.882380e+001	-2.000000e+002	0.000000e+000	-2.000000e+002	0.000000e+000
17649730.000	-2.809312e-004	-6.401210e+001	-6.170416e+001	2.878783e+001	-2.000000e+002	0.000000e+000	-2.000000e+002	0.000000e+000
18299720.000	-2.081693e-004	-6.638375e+001	-6.131050e+001	2.590263e+001	-2.000000e+002	0.000000e+000	-2.000000e+002	0.000000e+000
18949710.000	-3.896854e-003	-6.875285e+001	-6.093755e+001	2.344975e+001	-2.000000e+002	0.000000e+000	-2.000000e+002	0.000000e+000
19599700.000	-1.249639e-002	-7.111957e+001	-6.078392e+001	2.145460e+001	-2.000000e+002	0.000000e+000	-2.000000e+002	0.000000e+000
20249690.000	-1.878706e-002	-7.349083e+001	-6.029978e+001	1.907553e+001	-2.000000e+002	0.000000e+000	-2.000000e+002	0.000000e+000
20899680.000	-2.262591e-002	-7.589318e+001	-6.009963e+001	1.783590e+001	-2.000000e+002	0.000000e+000	-2.000000e+002	0.000000e+000
21549670.000	-2.641947e-002	-7.827845e+001	-6.001360e+001	1.706660e+001	-2.000000e+002	0.000000e+000	-2.000000e+002	0.000000e+000
22199660.000	-3.100107e-002	-8.065326e+001	-5.957249e+001	1.472828e+001	-2.000000e+002	0.000000e+000	-2.000000e+002	0.000000e+000
22849650.000	-3.493600e-002	-8.301304e+001	-5.920296e+001	1.569829e+001	-2.000000e+002	0.000000e+000	-2.000000e+002	0.000000e+000
23499640.000	-4.068909e-002	-8.539818e+001	-5.863808e+001	1.403525e+001	-2.000000e+002	0.000000e+000	-2.000000e+002	0.000000e+000
24149630.000	-4.681797e-002	-8.779220e+001	-5.791431e+001	1.078326e+001	-2.000000e+002	0.000000e+000	-2.000000e+002	0.000000e+000
24799620.000	-5.182295e-002	-9.017908e+001	-5.752678e+001	9.616334e+000	-2.000000e+002	0.000000e+000	-2.000000e+002	0.000000e+000
25449610.000	-5.572054e-002	-9.256533e+001	-5.705238e+001	6.154348e+000	-2.000000e+002	0.000000e+000	-2.000000e+002	0.000000e+000
26099600.000	-6.174506e-002	-9.496006e+001	-5.669052e+001	3.734102e+000	-2.000000e+002	0.000000e+000	-2.000000e+002	0.000000e+000
26749590.000	-6.787857e-002	-9.735563e+001	-5.604440e+001	-4.779202e-001	-2.000000e+002	0.000000e+000	-2.000000e+002	0.000000e+000
27399580.000	-7.402139e-002	-9.975799e+001	-5.579396e+001	-4.135923e+000	-2.000000e+002	0.000000e+000	-2.000000e+002	0.000000e+000
28049570.000	-7.956484e-002	-1.021604e+002	-5.562461e+001	-7.282255e+000	-2.000000e+002	0.000000e+000	-2.000000e+002	0.000000e+000
28699560.000	-8.585230e-002	-1.045654e+002	-5.535264e+001	-1.066415e+001	-2.000000e+002	0.000000e+000	-2.000000e+002	0.000000e+000
29349550.000	-9.276056e-002	-1.069726e+002	-5.512449e+001	-1.247611e+001	-2.000000e+002	0.000000e+000	-2.000000e+002	0.000000e+000
29999540.000	-9.977099e-002	-1.093878e+002	-5.488281e+001	-1.469960e+001	-2.000000e+002	0.000000e+000	-2.000000e+002	0.000000e+000
30649530.000	-1.070057e-001	-1.118078e+002	-5.465666e+001	-1.715074e+001	-2.000000e+002	0.000000e+000	-2.000000e+002	0.000000e+000
31299520.000	-1.137885e-001	-1.142275e+002	-5.442562e+001	-1.815676e+001	-2.000000e+002	0.000000e+000	-2.000000e+002	0.000000e+000
31949510.000	-1.215672e-001	-1.166526e+002	-5.404365e+001	-1.888130e+001	-2.000000e+002	0.000000e+000	-2.000000e+002	0.000000e+000
32599500.000	-1.301041e-001	-1.190794e+002	-5.357220e+001	-1.995093e+001	-2.000000e+002	0.000000e+000	-2.000000e+002	0.000000e+000
33249490.000	-1.382249e-001	-1.215066e+002	-5.313580e+001	-2.099354e+001	-2.000000e+002	0.000000e+000	-2.000000e+002	0.000000e+000
33899480.000	-1.470905e-001	-1.239354e+002	-5.246573e+001	-2.121002e+001	-2.000000e+002	0.000000e+000	-2.000000e+002	0.000000e+000
34549470.000	-1.558473e-001	-1.263629e+002	-5.164676e+001	-2.323854e+001	-2.000000e+002	0.000000e+000	-2.000000e+002	0.000000e+000
35199460.000	-1.648054e-001	-1.287977e+002	-5.090175e+001	-2.503248e+001	-2.000000e+002	0.000000e+000	-2.000000e+002	0.000000e+000
35849450.000	-1.738614e-001	-1.312338e+002	-5.003541e+001	-2.699741e+001	-2.000000e+002	0.000000e+000	-2.000000e+002	0.000000e+000
36499440.000	-1.824770e-001	-1.336723e+002	-4.904932e+001	-3.025842e+001	-2.000000e+002	0.000000e+000	-2.000000e+002	0.000000e+000
37149430.000	-1.912679e-001	-1.361199e+002	-4.815926e+001	-3.418949e+001	-2.000000e+002	0.000000e+000	-2.000000e+002	0.000000e+000
37799420.000	-1.998669e-001	-1.385733e+002	-4.728059e+001	-3.809018e+001	-2.000000e+002	0.000000e+000	-2.000000e+002	0.000000e+000
38449410.000	-2.086569e-001	-1.410284e+002	-4.632345e+001	-4.227097e+001	-2.000000e+002	0.000000e+000	-2.000000e+002	0.000000e+000
39099400.000	-2.175112e-001	-1.434961e+002	-4.531285e+001	-4.704136e+001	-2.000000e+002	0.000000e+000	-2.000000e+002	0.000000e+000
39749390.000	-2.265488e-001	-1.459789e+002	-4.433053e+001	-5.192552e+001	-2.000000e+002	0.000000e+000	-2.000000e+002	0.000000e+000
40399380.000	-2.370848e-001	-1.484756e+002	-4.322144e+001	-5.655620e+001	-2.000000e+002	0.000000e+000	-2.000000e+002	0.000000e+000
41049370.000	-2.492495e-001	-1.509919e+002	-4.189902e+001	-6.117823e+001	-2.000000e+002	0.000000e+000	-2.000000e+002	0.000000e+000
41699360.000	-2.641748e-001	-1.535384e+002	-4.027431e+001	-6.653251e+001	-2.000000e+002	0.000000e+000	-2.000000e+002	0.000000e+000
42349350.000	-2.845738e-001	-1.561379e+002	-3.819974e+001	-7.325304e+001	-2.000000e+002	0.000000e+000	-2.000000e+002	0.000000e+000
42999340.000	-3.206304e-001	-1.588274e+002	-3.547499e+001	-8.290592e+001	-2.000000e+002	0.000000e+000	-2.000000e+002	0.000000e+000
43649330.000	-4.102655e-001	-1.616601e+002	-3.173709e+001	-1.000363e+002	-2.000000e+002	0.000000e+000	-2.000000e+002	0.000000e+000
44299320.000	-6.804871e-001	-1.637116e+002	-2.742363e+001	-1.405349e+002	-2.000000e+002	0.000000e+000	-2.000000e+002	0.000000e+000
44949310.000	-5.741584e-001	-1.637360e+002	-2.912548e+001	1.582234e+002	-2.000000e+002	0.000000e+000	-2.000000e+002	0.000000e+000
45599300.000	-3.983298e-001	-1.663965e+002	-3.393015e+001	1.289057e+002	-2.000000e+002	0.000000e+000	-2.000000e+002	0.000000e+000
46249290.000	-3.547970e-001	-1.691722e+002	-3.765593e+001	1.140086e+002	-2.000000e+002	0.000000e+000	-2.000000e+002	0.000000e+000
46899280.000	-3.442841e-001	-1.718109e+002	-4.066519e+001	1.036202e+002	-2.000000e+002	0.000000e+000	-2.000000e+002	0.000000e+000
47549270.000	-3.427975e-001	-1.743689e+002	-4.325243e+001	9.506442e+001	-2.000000e+002	0.000000e+000	-2.000000e+002	0.000000e+000
48199260.000	-3.439830e-001	-1.768877e+002	-4.565102e+001	8.805773e+001	-2.000000e+002	0.000000e+000	-2.000000e+002	0.000000e+000
48849250.000	-3.466353e-001	-1.793869e+002	-4.784334e+001	8.228060e+001	-2.000000e+002	0.000000e+000	-2.000000e+002	0.000000e+000
49499240.000	-3.493627e-001	1.781246e+002	-5.000760e+001	7.741859e+001	-2.000000e+002	0.000000e+000	-2.000000e+002	0.000000e+000
50149230.000	-3.530019e-001	1.756409e+002	-5.192500e+001	7.365156e+001	-2.000000e+002	0.000000e+000	-2.000000e+002	0.000000e+000
50799220.000	-3.571690e-001	1.731625e+002	-5.364068e+001	7.040655e+001	-2.000000e+002	0.000000e+000	-2.000000e+002	0.000000e+000
51449210.000	-3.624469e-001	1.706811e+002	-5.518658e+001	6.626115e+001	-2.000000e+002	0.000000e+000	-2.000000e+002	0.000000e+000
52099200.000	-3.675493e-001	1.682090e+002	-5.678525e+001	6.178720e+001	-2.000000e+002	0.000000e+000	-2.000000e+002	0.000000e+000
52749190.000	-3.728095e-001	1.657426e+002	-5.847898e+001	5.550914e+001	-2.000000e+002	0.000000e+000	-2.000000e+002	0.000000e+000
53399180.000	-3.783480e-001	1.632798e+002	-6.020932e+001	5.054273e+001	-2.000000e+002	0.000000e+000	-2.000000e+002	0.000000e+000
54049170.000	-3.837434e-001	1.608157e+002	-6.198838e+001	4.504570e+001	-2.000000e+002	0.000000e+000	-2.000000e+002	0.000000e+000
54699160.000	-3.895934e-001	1.583568e+002	-6.366648e+001	3.686485e+001	-2.000000e+002	0.000000e+000	-2.000000e+002	0.000000e+000
55349150.000	-3.951000e-001	1.558990e+002	-6.509757e+001	2.692687e+001	-2.000000e+002	0.000000e+000	-2.000000e+002	0.000000e+000
55999140.000	-4.006089e-001	1.534457e+002	-6.641739e+001	1.451734e+001	-2.000000e+002	0.000000e+000	-2.000000e+002	0.000000e+000
56649130.000	-4.061018e-001	1.509945e+002	-6.771268e+001	-2.917450e-001	-2.000000e+002	0.000000e+000	-2.000000e+002	0.000000e+000
57299120.000	-4.115014e-001	1.485452e+002	-6.844896e+001	-1.873435e+001	-2.000000e+002	0.000000e+000	-2.000000e+002	0.000000e+000
57949110.000	-4.165261e-001	1.460972e+002	-6.857145e+001	-3.549536e+001	-2.000000e+002	0.000000e+000	-2.000000e+002	0.000000e+000
58599100.000	-4.211357e-001	1.436481e+002	-6.790182e+001	-4.950873e+001	-2.000000e+002	0.000000e+000	-2.000000e+002	0.000000e+000
59249090.000	-4.261457e-001	1.412063e+002	-6.711154e+001	-6.265846e+001	-2.000000e+002	0.000000e+000	-2.000000e+002	0.000000e+000
59899080.000	-4.308151e-001	1.387636e+002	-6.632996e+001	-7.260127e+001	-2.000000e+002	0.000000e+000	-2.000000e+002	0.000000e+000
60549070.000	-4.355808e-001	1.363270e+002	-6.553599e+001	-8.082982e+001	-2.000000e+002	0.000000e+000	-2.000000e+002	0.000000e+000
61199060.000	-4.407716e-001	1.338926e+002	-6.442930e+001	-8.546275e+001	-2.000000e+002	0.000000e+000	-2.000000e+002	0.000000e+000
61849050.000	-4.450236e-001	1.314598e+002	-6.309762e+001	-8.939695e+001	-2.000000e+002	0.000000e+000	-2.000000e+002	0.000000e+000
62499040.000	-4.493379e-001	1.290309e+002	-6.183239e+001	-9.648632e+001	-2.000000e+002	0.000000e+000	-2.000000e+002	0.000000e+000
63149030.000	-4.529354e-001	1.266057e+002	-6.068245e+001	-1.037687e+002	-2.000000e+002	0.000000e+000	-2.000000e+002	0.000000e+000
63799020.000	-4.562606e-001	1.241821e+002	-5.983199e+001	-1.122820e+002	-2.000000e+002	0.000000e+000	-2.000000e+002	0.000000e+000
64449010.000	-4.598449e-001	1.217609e+002	-5.940013e+001	-1.201554e+002	-2.000000e+002	0.000000e+000	-2.000000e+002	0.000000e+000
65099000.000	-4.619072e-001	1.193333e+002	-5.907573e+001	-1.264479e+002	-2.000000e+002	0.000000e+000	-2.000000e+002	0.000000e+000
65748990.000	-4.641600e-001	1.169080e+002	-5.881624e+001	-1.324995e+002	-2.000000e+002	0.000000e+000	-2.000000e+002	0.000000e+000
66398980.000	-4.672523e-001	1.144901e+002	-5.865301e+001	-1.368322e+002	-2.000000e+002	0.000000e+000	-2.000000e+002	0.000000e+000
67048970.000	-4.691518e-001	1.120680e+002	-5.848890e+001	-1.411344e+002	-2.000000e+002	0.000000e+000	-2.000000e+002	0.000000e+000
67698960.000	-4.720376e-001	1.096560e+002	-5.839106e+001	-1.449660e+002	-2.000000e+002	0.000000e+000	-2.000000e+002	0.000000e+000
68348950.000	-4.732716e-001	1.072387e+002	-5.813126e+001	-1.483784e+002	-2.000000e+002	0.000000e+000	-2.000000e+002	0.000000e+000
68998940.000	-4.758164e-001	1.048266e+002	-5.806738e+001	-1.519062e+002	-2.000000e+002	0.000000e+000	-2.000000e+002	0.000000e+000
69648930.000	-4.773544e-001	1.024123e+002	-5.800743e+001	-1.542207e+002	-2.000000e+002	0.000000e+000	-2.000000e+002	0.000000e+000
70298920.000	-4.788856e-001	9.999461e+001	-5.787349e+001	-1.574740e+002	-2.000000e+002	0.000000e+000	-2.000000e+002	0.000000e+000
70948910.000	-4.809680e-001	9.758631e+001	-5.782417e+001	-1.598630e+002	-2.000000e+002	0.000000e+000	-2.000000e+002	0.000000e+000
71598900.000	-4.814224e-001	9.517902e+001	-5.764531e+001	-1.628532e+002	-2.000000e+002	0.000000e+000	-2.000000e+002	0.000000e+000
72248890.000	-4.833824e-001	9.277785e+001	-5.751700e+001	-1.652802e+002	-2.000000e+002	0.000000e+000	-2.000000e+002	0.000000e+000
72898880.000	-4.842836e-001	9.037647e+001	-5.733888e+001	-1.675855e+002	-2.000000e+002	0.000000e+000	-2.000000e+002	0.000000e+000
73548870.000	-4.855988e-001	8.798047e+001	-5.731779e+001	-1.698366e+002	-2.000000e+002	0.000000e+000	-2.000000e+002	0.000000e+000
74198860.000	-4.860906e-001	8.558373e+001	-5.713598e+001	-1.724697e+002	-2.000000e+002	0.000000e+000	-2.000000e+002	0.000000e+000
74848850.000	-4.877278e-001	8.318947e+001	-5.701047e+001	-1.747562e+002	-2.000000e+002	0.000000e+000	-2.000000e+002	0.000000e+000
75498840.000	-4.879211e-001	8.079666e+001	-5.693367e+001	-1.769830e+002	-2.000000e+002	0.000000e+000	-2.000000e+002	0.000000e+000
76148830.000	-4.877443e-001	7.841148e+001	-5.683440e+001	-1.790725e+002	-2.000000e+002	0.000000e+000	-2.000000e+002	0.000000e+000
76798820.000	-4.874813e-001	7.602138e+001	-5.671729e+001	1.785077e+002	-2.000000e+002	0.000000e+000	-2.000000e+002	0.000000e+000
77448810.000	-4.884054e-001	7.364918e+001	-5.669211e+001	1.768744e+002	-2.000000e+002	0.000000e+000	-2.000000e+002	0.000000e+000
78098800.000	-4.881951e-001	7.126611e+001	-5.661488e+001	1.749548e+002	-2.000000e+002	0.000000e+000	-2.000000e+002	0.000000e+000
78748790.000	-4.881026e-001	6.888964e+001	-5.650374e+001	1.736853e+002	-2.000000e+002	0.000000e+000	-2.000000e+002	0.000000e+000
79398780.000	-4.869435e-001	6.651589e+001	-5.634388e+001	1.720921e+002	-2.000000e+002	0.000000e+000	-2.000000e+002	0.000000e+000
80048770.000	-4.864687e-001	6.412929e+001	-5.615094e+001	1.703337e+002	-2.000000e+002	0.000000e+000	-2.000000e+002	0.000000e+000
80698760.000	-4.851730e-001	6.175844e+001	-5.598998e+001	1.684045e+002	-2.000000e+002	0.000000e+000	-2.000000e+002	0.000000e+000
81348750.000	-4.837516e-001	5.938822e+001	-5.582930e+001	1.662222e+002	-2.000000e+002	0.000000e+000	-2.000000e+002	0.000000e+000
81998740.000	-4.821935e-001	5.701694e+001	-5.569137e+001	1.641147e+002	-2.000000e+002	0.000000e+000	-2.000000e+002	0.000000e+000
82648730.000	-4.813705e-001	5.466621e+001	-5.550616e+001	1.614748e+002	-2.000000e+002	0.000000e+000	-2.000000e+002	0.000000e+000
83298720.000	-4.795603e-001	5.229588e+001	-5.537947e+001	1.595233e+002	-2.000000e+002	0.000000e+000	-2.000000e+002	0.000000e+000
83948710.000	-4.773832e-001	4.993149e+001	-5.528158e+001	1.575372e+002	-2.000000e+002	0.000000e+000	-2.000000e+002	0.000000e+000
84598700.000	-4.753495e-001	4.756199e+001	-5.519283e+001	1.553492e+002	-2.000000e+002	0.000000e+000	-2.000000e+002	0.000000e+000
85248690.000	-4.737531e-001	4.520156e+001	-5.506954e+001	1.532946e+002	-2.000000e+002	0.000000e+000	-2.000000e+002	0.000000e+000
85898680.000	-4.718126e-001	4.284179e+001	-5.498156e+001	1.515110e+002	-2.000000e+002	0.000000e+000	-2.000000e+002	0.000000e+000
86548670.000	-4.690501e-001	4.048729e+001	-5.480084e+001	1.495784e+002	-2.000000e+002	0.000000e+000	-2.000000e+002	0.000000e+000
87198660.000	-4.668597e-001	3.813175e+001	-5.474369e+001	1.475895e+002	-2.000000e+002	0.000000e+000	-2.000000e+002	0.000000e+000
87848650.000	-4.643881e-001	3.577980e+001	-5.460080e+001	1.456609e+002	-2.000000e+002	0.000000e+000	-2.000000e+002	0.000000e+000
88498640.000	-4.620985e-001	3.343020e+001	-5.460518e+001	1.439630e+002	-2.000000e+002	0.000000e+000	-2.000000e+002	0.000000e+000
89148630.000	-4.598902e-001	3.108062e+001	-5.447360e+001	1.418027e+002	-2.000000e+002	0.000000e+000	-2.000000e+002	0.000000e+000
89798620.000	-4.571771e-001	2.872825e+001	-5.429900e+001	1.406073e+002	-2.000000e+002	0.000000e+000	-2.000000e+002	0.000000e+000
90448610.000	-4.544879e-001	2.637755e+001	-5.415954e+001	1.384516e+002	-2.000000e+002	0.000000e+000	-2.000000e+002	0.000000e+000
91098600.000	-4.525906e-001	2.402660e+001	-5.404437e+001	1.365594e+002	-2.000000e+002	0.000000e+000	-2.000000e+002	0.000000e+000
91748590.000	-4.493782e-001	2.167912e+001	-5.387687e+001	1.344573e+002	-2.000000e+002	0.000000e+000	-2.000000e+002	0.000000e+000
92398580.000	-4.462463e-001	1.933027e+001	-5.386434e+001	1.321765e+002	-2.000000e+002	0.000000e+000	-2.000000e+002	0.000000e+000
93048570.000	-4.433461e-001	1.698589e+001	-5.376266e+001	1.306711e+002	-2.000000e+002	0.000000e+000	-2.000000e+002	0.000000e+000
93698560.000	-4.410854e-001	1.463851e+001	-5.371950e+001	1.288501e+002	-2.000000e+002	0.000000e+000	-2.000000e+002	0.000000e+000
94348550.000	-4.381593e-001	1.229506e+001	-5.364914e+001	1.269139e+002	-2.000000e+002	0.000000e+000	-2.000000e+002	0.000000e+000
94998540.000	-4.361002e-001	9.949937e+000	-5.353288e+001	1.252298e+002	-2.000000e+002	0.000000e+000	-2.000000e+002	0.000000e+000
95648530.000	-4.328825e-001	7.612690e+000	-5.342253e+001	1.237353e+002	-2.000000e+002	0.000000e+000	-2.000000e+002	0.000000e+000
96298520.000	-4.298919e-001	5.275160e+000	-5.334263e+001	1.219538e+002	-2.000000e+002	0.000000e+000	-2.000000e+002	0.000000e+000
96948510.000	-4.275368e-001	2.938037e+000	-5.332588e+001	1.203404e+002	-2.000000e+002	0.000000e+000	-2.000000e+002	0.000000e+000
97598500.000	-4.249090e-001	5.981970e-001	-5.332471e+001	1.193193e+002	-2.000000e+002	0.000000e+000	-2.000000e+002	0.000000e+000
98248490.000	-4.219749e-001	-1.741393e+000	-5.333560e+001	1.184246e+002	-2.000000e+002	0.000000e+000	-2.000000e+002	0.000000e+000
