!Keysight Technologies,E5063A,MY54503115,A.05.08
!Date: Mon Mar 04 16:10:30 2024
!Data & Calibration Information:
!Freq	S11:NONE(--)	S21:NONE(--)	S12:NONE(--)	S22:NONE(--)
# Hz S dB R 50
100000.000	4.749501e-002	-9.009750e-001	-8.389458e+001	6.492967e+001	-2.000000e+002	0.000000e+000	-2.000000e+002	0.000000e+000
749990.000	5.153937e-003	-3.071533e+000	-8.949385e+001	-9.917501e+001	-2.000000e+002	0.000000e+000	-2.000000e+002	0.000000e+000
1399980.000	6.937636e-003	-5.379890e+000	-1.068593e+002	3.369927e+001	-2.000000e+002	0.000000e+000	-2.000000e+002	0.000000e+000
2049970.000	6.533895e-003	-7.704206e+000	-8.322504e+001	1.429156e+002	-2.000000e+002	0.000000e+000	-2.000000e+002	0.000000e+000
2699960.000	7.281583e-003	-1.002338e+001	-7.889837e+001	9.014812e+001	-2.000000e+002	0.000000e+000	-2.000000e+002	0.000000e+000
3349950.000	9.296740e-003	-1.236684e+001	-7.523249e+001	7.684226e+001	-2.000000e+002	0.000000e+000	-2.000000e+002	0.000000e+000
3999940.000	8.795491e-003	-1.469872e+001	-7.675594e+001	8.634967e+001	-2.000000e+002	0.000000e+000	-2.000000e+002	0.000000e+000
4649930.000	1.050979e-002	-1.703051e+001	-7.478124e+001	7.901178e+001	-2.000000e+002	0.000000e+000	-2.000000e+002	0.000000e+000
5299920.000	9.946861e-003	-1.936783e+001	-7.189632e+001	8.116777e+001	-2.000000e+002	0.000000e+000	-2.000000e+002	0.000000e+000
5949910.000	1.076306e-002	-2.170526e+001	-7.252929e+001	7.147593e+001	-2.000000e+002	0.000000e+000	-2.000000e+002	0.000000e+000
6599900.000	1.023606e-002	-2.404254e+001	-7.104231e+001	7.353681e+001	-2.000000e+002	0.000000e+000	-2.000000e+002	0.000000e+000
7249890.000	1.079927e-002	-2.638307e+001	-6.971360e+001	6.707477e+001	-2.000000e+002	0.000000e+000	-2.000000e+002	0.000000e+000
7899880.000	1.034361e-002	-2.872694e+001	-6.941552e+001	6.642589e+001	-2.000000e+002	0.000000e+000	-2.000000e+002	0.000000e+000
8549870.000	1.361994e-002	-3.107647e+001	-6.836596e+001	6.308341e+001	-2.000000e+002	0.000000e+000	-2.000000e+002	0.000000e+000
9199860.000	1.254686e-002	-3.341896e+001	-6.780713e+001	5.975126e+001	-2.000000e+002	0.000000e+000	-2.000000e+002	0.000000e+000
9849850.000	1.209245e-002	-3.576322e+001	-6.719555e+001	5.661416e+001	-2.000000e+002	0.000000e+000	-2.000000e+002	0.000000e+000
10499840.000	1.009753e-002	-3.810271e+001	-6.662601e+001	5.498771e+001	-2.000000e+002	0.000000e+000	-2.000000e+002	0.000000e+000
11149830.000	7.566316e-003	-4.044596e+001	-6.604429e+001	5.119091e+001	-2.000000e+002	0.000000e+000	-2.000000e+002	0.000000e+000
11799820.000	6.572100e-003	-4.279061e+001	-6.544570e+001	5.004910e+001	-2.000000e+002	0.000000e+000	-2.000000e+002	0.000000e+000
12449810.000	6.711848e-003	-4.514633e+001	-6.486337e+001	4.781431e+001	-2.000000e+002	0.000000e+000	-2.000000e+002	0.000000e+000
13099800.000	7.613920e-003	-4.749834e+001	-6.454398e+001	4.484255e+001	-2.000000e+002	0.000000e+000	-2.000000e+002	0.000000e+000
13749790.000	5.409593e-003	-4.984303e+001	-6.416247e+001	4.306921e+001	-2.000000e+002	0.000000e+000	-2.000000e+002	0.000000e+000
14399780.000	2.700170e-003	-5.220760e+001	-6.361945e+001	4.157013e+001	-2.000000e+002	0.000000e+000	-2.000000e+002	0.000000e+000
15049770.000	1.739837e-003	-5.456557e+001	-6.313751e+001	3.829970e+001	-2.000000e+002	0.000000e+000	-2.000000e+002	0.000000e+000
15699760.000	8.038422e-004	-5.690998e+001	-6.293821e+001	3.553053e+001	-2.000000e+002	0.000000e+000	-2.000000e+002	0.000000e+000
16349750.000	-9.887712e-004	-5.926697e+001	-6.249863e+001	3.396747e+001	-2.000000e+002	0.000000e+000	-2.000000e+002	0.000000e+000
16999740.000	-3.802193e-003	-6.163428e+001	-6.208259e+001	3.072919e+001	-2.000000e+002	0.000000e+000	-2.000000e+002	0.000000e+000
17649730.000	-3.374338e-004	-6.400872e+001	-6.163536e+001	2.900333e+001	-2.000000e+002	0.000000e+000	-2.000000e+002	0.000000e+000
18299720.000	8.469529e-006	-6.638182e+001	-6.148418e+001	2.624984e+001	-2.000000e+002	0.000000e+000	-2.000000e+002	0.000000e+000
18949710.000	-4.049961e-003	-6.875366e+001	-6.109226e+001	2.425249e+001	-2.000000e+002	0.000000e+000	-2.000000e+002	0.000000e+000
19599700.000	-1.212271e-002	-7.111987e+001	-6.082783e+001	2.205664e+001	-2.000000e+002	0.000000e+000	-2.000000e+002	0.000000e+000
20249690.000	-1.873260e-002	-7.349181e+001	-6.045074e+001	2.027929e+001	-2.000000e+002	0.000000e+000	-2.000000e+002	0.000000e+000
20899680.000	-2.230842e-002	-7.589339e+001	-6.021144e+001	1.812328e+001	-2.000000e+002	0.000000e+000	-2.000000e+002	0.000000e+000
21549670.000	-2.643065e-002	-7.827755e+001	-5.991162e+001	1.637245e+001	-2.000000e+002	0.000000e+000	-2.000000e+002	0.000000e+000
22199660.000	-3.097605e-002	-8.065063e+001	-5.948435e+001	1.539634e+001	-2.000000e+002	0.000000e+000	-2.000000e+002	0.000000e+000
22849650.000	-3.488418e-002	-8.300958e+001	-5.916979e+001	1.513260e+001	-2.000000e+002	0.000000e+000	-2.000000e+002	0.000000e+000
23499640.000	-4.082883e-002	-8.539818e+001	-5.881214e+001	1.366343e+001	-2.000000e+002	0.000000e+000	-2.000000e+002	0.000000e+000
24149630.000	-4.701717e-002	-8.779082e+001	-5.815777e+001	1.143656e+001	-2.000000e+002	0.000000e+000	-2.000000e+002	0.000000e+000
24799620.000	-5.183405e-002	-9.017978e+001	-5.746347e+001	9.182168e+000	-2.000000e+002	0.000000e+000	-2.000000e+002	0.000000e+000
25449610.000	-5.564900e-002	-9.256630e+001	-5.709491e+001	6.570311e+000	-2.000000e+002	0.000000e+000	-2.000000e+002	0.000000e+000
26099600.000	-6.141569e-002	-9.495856e+001	-5.664493e+001	2.828605e+000	-2.000000e+002	0.000000e+000	-2.000000e+002	0.000000e+000
26749590.000	-6.781297e-002	-9.735426e+001	-5.616253e+001	6.590548e-001	-2.000000e+002	0.000000e+000	-2.000000e+002	0.000000e+000
27399580.000	-7.382604e-002	-9.975807e+001	-5.592284e+001	-4.328256e+000	-2.000000e+002	0.000000e+000	-2.000000e+002	0.000000e+000
28049570.000	-7.944600e-002	-1.021595e+002	-5.556145e+001	-7.688944e+000	-2.000000e+002	0.000000e+000	-2.000000e+002	0.000000e+000
28699560.000	-8.605657e-002	-1.045633e+002	-5.523436e+001	-1.064996e+001	-2.000000e+002	0.000000e+000	-2.000000e+002	0.000000e+000
29349550.000	-9.233176e-002	-1.069745e+002	-5.501065e+001	-1.142999e+001	-2.000000e+002	0.000000e+000	-2.000000e+002	0.000000e+000
29999540.000	-9.974121e-002	-1.093861e+002	-5.478268e+001	-1.479873e+001	-2.000000e+002	0.000000e+000	-2.000000e+002	0.000000e+000
30649530.000	-1.069082e-001	-1.118071e+002	-5.460118e+001	-1.718164e+001	-2.000000e+002	0.000000e+000	-2.000000e+002	0.000000e+000
31299520.000	-1.137722e-001	-1.142278e+002	-5.443499e+001	-1.765419e+001	-2.000000e+002	0.000000e+000	-2.000000e+002	0.000000e+000
31949510.000	-1.213980e-001	-1.166500e+002	-5.408517e+001	-1.864661e+001	-2.000000e+002	0.000000e+000	-2.000000e+002	0.000000e+000
32599500.000	-1.299598e-001	-1.190790e+002	-5.358306e+001	-2.003084e+001	-2.000000e+002	0.000000e+000	-2.000000e+002	0.000000e+000
33249490.000	-1.382695e-001	-1.215040e+002	-5.314019e+001	-2.104887e+001	-2.000000e+002	0.000000e+000	-2.000000e+002	0.000000e+000
33899480.000	-1.468175e-001	-1.239348e+002	-5.244925e+001	-2.140255e+001	-2.000000e+002	0.000000e+000	-2.000000e+002	0.000000e+000
34549470.000	-1.559644e-001	-1.263619e+002	-5.169971e+001	-2.320243e+001	-2.000000e+002	0.000000e+000	-2.000000e+002	0.000000e+000
35199460.000	-1.648964e-001	-1.287969e+002	-5.088200e+001	-2.508652e+001	-2.000000e+002	0.000000e+000	-2.000000e+002	0.000000e+000
35849450.000	-1.737389e-001	-1.312338e+002	-5.003532e+001	-2.716470e+001	-2.000000e+002	0.000000e+000	-2.000000e+002	0.000000e+000
36499440.000	-1.826746e-001	-1.336739e+002	-4.904927e+001	-3.011821e+001	-2.000000e+002	0.000000e+000	-2.000000e+002	0.000000e+000
37149430.000	-1.912948e-001	-1.361195e+002	-4.813449e+001	-3.415601e+001	-2.000000e+002	0.000000e+000	-2.000000e+002	0.000000e+000
37799420.000	-1.997944e-001	-1.385716e+002	-4.724583e+001	-3.809274e+001	-2.000000e+002	0.000000e+000	-2.000000e+002	0.000000e+000
38449410.000	-2.089320e-001	-1.410260e+002	-4.629622e+001	-4.223067e+001	-2.000000e+002	0.000000e+000	-2.000000e+002	0.000000e+000
39099400.000	-2.173812e-001	-1.434959e+002	-4.531369e+001	-4.687650e+001	-2.000000e+002	0.000000e+000	-2.000000e+002	0.000000e+000
39749390.000	-2.266876e-001	-1.459744e+002	-4.429780e+001	-5.193879e+001	-2.000000e+002	0.000000e+000	-2.000000e+002	0.000000e+000
40399380.000	-2.369818e-001	-1.484747e+002	-4.322631e+001	-5.661647e+001	-2.000000e+002	0.000000e+000	-2.000000e+002	0.000000e+000
41049370.000	-2.490283e-001	-1.509911e+002	-4.189805e+001	-6.112794e+001	-2.000000e+002	0.000000e+000	-2.000000e+002	0.000000e+000
41699360.000	-2.639409e-001	-1.535384e+002	-4.024974e+001	-6.658628e+001	-2.000000e+002	0.000000e+000	-2.000000e+002	0.000000e+000
42349350.000	-2.847826e-001	-1.561392e+002	-3.819144e+001	-7.326438e+001	-2.000000e+002	0.000000e+000	-2.000000e+002	0.000000e+000
42999340.000	-3.206424e-001	-1.588257e+002	-3.545110e+001	-8.294340e+001	-2.000000e+002	0.000000e+000	-2.000000e+002	0.000000e+000
43649330.000	-4.110700e-001	-1.616607e+002	-3.171382e+001	-1.001336e+002	-2.000000e+002	0.000000e+000	-2.000000e+002	0.000000e+000
44299320.000	-6.818858e-001	-1.637007e+002	-2.740133e+001	-1.408143e+002	-2.000000e+002	0.000000e+000	-2.000000e+002	0.000000e+000
44949310.000	-5.724627e-001	-1.637326e+002	-2.913641e+001	1.579609e+002	-2.000000e+002	0.000000e+000	-2.000000e+002	0.000000e+000
45599300.000	-3.978350e-001	-1.664006e+002	-3.394455e+001	1.287441e+002	-2.000000e+002	0.000000e+000	-2.000000e+002	0.000000e+000
46249290.000	-3.547846e-001	-1.691744e+002	-3.768384e+001	1.138226e+002	-2.000000e+002	0.000000e+000	-2.000000e+002	0.000000e+000
46899280.000	-3.444111e-001	-1.718110e+002	-4.068108e+001	1.034089e+002	-2.000000e+002	0.000000e+000	-2.000000e+002	0.000000e+000
47549270.000	-3.428121e-001	-1.743669e+002	-4.331849e+001	9.497296e+001	-2.000000e+002	0.000000e+000	-2.000000e+002	0.000000e+000
48199260.000	-3.437336e-001	-1.768858e+002	-4.572615e+001	8.830543e+001	-2.000000e+002	0.000000e+000	-2.000000e+002	0.000000e+000
48849250.000	-3.461430e-001	-1.793843e+002	-4.792611e+001	8.246173e+001	-2.000000e+002	0.000000e+000	-2.000000e+002	0.000000e+000
49499240.000	-3.492410e-001	1.781254e+002	-5.001241e+001	7.773492e+001	-2.000000e+002	0.000000e+000	-2.000000e+002	0.000000e+000
50149230.000	-3.528706e-001	1.756408e+002	-5.200832e+001	7.388296e+001	-2.000000e+002	0.000000e+000	-2.000000e+002	0.000000e+000
50799220.000	-3.574228e-001	1.731612e+002	-5.369901e+001	7.036696e+001	-2.000000e+002	0.000000e+000	-2.000000e+002	0.000000e+000
51449210.000	-3.621884e-001	1.706817e+002	-5.530268e+001	6.673770e+001	-2.000000e+002	0.000000e+000	-2.000000e+002	0.000000e+000
52099200.000	-3.672851e-001	1.682101e+002	-5.685091e+001	6.160884e+001	-2.000000e+002	0.000000e+000	-2.000000e+002	0.000000e+000
52749190.000	-3.727994e-001	1.657433e+002	-5.855999e+001	5.621449e+001	-2.000000e+002	0.000000e+000	-2.000000e+002	0.000000e+000
53399180.000	-3.784057e-001	1.632820e+002	-6.014404e+001	5.032301e+001	-2.000000e+002	0.000000e+000	-2.000000e+002	0.000000e+000
54049170.000	-3.837327e-001	1.608179e+002	-6.194837e+001	4.378173e+001	-2.000000e+002	0.000000e+000	-2.000000e+002	0.000000e+000
54699160.000	-3.894358e-001	1.583571e+002	-6.382532e+001	3.693093e+001	-2.000000e+002	0.000000e+000	-2.000000e+002	0.000000e+000
55349150.000	-3.951506e-001	1.559006e+002	-6.526086e+001	2.741055e+001	-2.000000e+002	0.000000e+000	-2.000000e+002	0.000000e+000
55999140.000	-4.004459e-001	1.534448e+002	-6.625933e+001	1.514962e+001	-2.000000e+002	0.000000e+000	-2.000000e+002	0.000000e+000
56649130.000	-4.061294e-001	1.509972e+002	-6.789166e+001	2.426426e+000	-2.000000e+002	0.000000e+000	-2.000000e+002	0.000000e+000
57299120.000	-4.112209e-001	1.485472e+002	-6.809549e+001	-1.692167e+001	-2.000000e+002	0.000000e+000	-2.000000e+002	0.000000e+000
57949110.000	-4.164266e-001	1.460975e+002	-6.833448e+001	-3.267094e+001	-2.000000e+002	0.000000e+000	-2.000000e+002	0.000000e+000
58599100.000	-4.209614e-001	1.436479e+002	-6.808367e+001	-5.016340e+001	-2.000000e+002	0.000000e+000	-2.000000e+002	0.000000e+000
59249090.000	-4.259217e-001	1.412073e+002	-6.727319e+001	-6.326702e+001	-2.000000e+002	0.000000e+000	-2.000000e+002	0.000000e+000
59899080.000	-4.308121e-001	1.387651e+002	-6.625635e+001	-7.335165e+001	-2.000000e+002	0.000000e+000	-2.000000e+002	0.000000e+000
60549070.000	-4.353989e-001	1.363263e+002	-6.554609e+001	-7.996874e+001	-2.000000e+002	0.000000e+000	-2.000000e+002	0.000000e+000
61199060.000	-4.403397e-001	1.338939e+002	-6.451469e+001	-8.496238e+001	-2.000000e+002	0.000000e+000	-2.000000e+002	0.000000e+000
61849050.000	-4.449221e-001	1.314605e+002	-6.314333e+001	-8.999936e+001	-2.000000e+002	0.000000e+000	-2.000000e+002	0.000000e+000
62499040.000	-4.493911e-001	1.290340e+002	-6.187157e+001	-9.610323e+001	-2.000000e+002	0.000000e+000	-2.000000e+002	0.000000e+000
63149030.000	-4.528714e-001	1.266055e+002	-6.058770e+001	-1.044433e+002	-2.000000e+002	0.000000e+000	-2.000000e+002	0.000000e+000
63799020.000	-4.564486e-001	1.241813e+002	-5.982795e+001	-1.125510e+002	-2.000000e+002	0.000000e+000	-2.000000e+002	0.000000e+000
64449010.000	-4.595945e-001	1.217619e+002	-5.929873e+001	-1.199236e+002	-2.000000e+002	0.000000e+000	-2.000000e+002	0.000000e+000
65099000.000	-4.618285e-001	1.193376e+002	-5.909212e+001	-1.270719e+002	-2.000000e+002	0.000000e+000	-2.000000e+002	0.000000e+000
65748990.000	-4.639542e-001	1.169100e+002	-5.879193e+001	-1.329059e+002	-2.000000e+002	0.000000e+000	-2.000000e+002	0.000000e+000
66398980.000	-4.671159e-001	1.144912e+002	-5.866247e+001	-1.374055e+002	-2.000000e+002	0.000000e+000	-2.000000e+002	0.000000e+000
67048970.000	-4.690137e-001	1.120666e+002	-5.847042e+001	-1.415623e+002	-2.000000e+002	0.000000e+000	-2.000000e+002	0.000000e+000
67698960.000	-4.718506e-001	1.096549e+002	-5.836873e+001	-1.453927e+002	-2.000000e+002	0.000000e+000	-2.000000e+002	0.000000e+000
68348950.000	-4.732695e-001	1.072384e+002	-5.813237e+001	-1.490236e+002	-2.000000e+002	0.000000e+000	-2.000000e+002	0.000000e+000
68998940.000	-4.756576e-001	1.048273e+002	-5.815835e+001	-1.523619e+002	-2.000000e+002	0.000000e+000	-2.000000e+002	0.000000e+000
69648930.000	-4.771336e-001	1.024142e+002	-5.805906e+001	-1.552985e+002	-2.000000e+002	0.000000e+000	-2.000000e+002	0.000000e+000
70298920.000	-4.786010e-001	9.999498e+001	-5.789870e+001	-1.575177e+002	-2.000000e+002	0.000000e+000	-2.000000e+002	0.000000e+000
70948910.000	-4.808321e-001	9.758805e+001	-5.782916e+001	-1.604811e+002	-2.000000e+002	0.000000e+000	-2.000000e+002	0.000000e+000
71598900.000	-4.817974e-001	9.518303e+001	-5.763216e+001	-1.628837e+002	-2.000000e+002	0.000000e+000	-2.000000e+002	0.000000e+000
72248890.000	-4.833578e-001	9.277662e+001	-5.741248e+001	-1.660206e+002	-2.000000e+002	0.000000e+000	-2.000000e+002	0.000000e+000
72898880.000	-4.842025e-001	9.037713e+001	-5.737159e+001	-1.680806e+002	-2.000000e+002	0.000000e+000	-2.000000e+002	0.000000e+000
73548870.000	-4.851626e-001	8.797860e+001	-5.733120e+001	-1.704051e+002	-2.000000e+002	0.000000e+000	-2.000000e+002	0.000000e+000
74198860.000	-4.862821e-001	8.558396e+001	-5.715754e+001	-1.724347e+002	-2.000000e+002	0.000000e+000	-2.000000e+002	0.000000e+000
74848850.000	-4.873667e-001	8.319228e+001	-5.701561e+001	-1.743202e+002	-2.000000e+002	0.000000e+000	-2.000000e+002	0.000000e+000
75498840.000	-4.875982e-001	8.079814e+001	-5.684309e+001	-1.770849e+002	-2.000000e+002	0.000000e+000	-2.000000e+002	0.000000e+000
76148830.000	-4.880424e-001	7.841049e+001	-5.677586e+001	-1.794633e+002	-2.000000e+002	0.000000e+000	-2.000000e+002	0.000000e+000
76798820.000	-4.867449e-001	7.601945e+001	-5.673606e+001	1.784541e+002	-2.000000e+002	0.000000e+000	-2.000000e+002	0.000000e+000
77448810.000	-4.877569e-001	7.365025e+001	-5.672759e+001	1.764872e+002	-2.000000e+002	0.000000e+000	-2.000000e+002	0.000000e+000
78098800.000	-4.882082e-001	7.126580e+001	-5.663558e+001	1.750464e+002	-2.000000e+002	0.000000e+000	-2.000000e+002	0.000000e+000
78748790.000	-4.878817e-001	6.888972e+001	-5.647594e+001	1.731784e+002	-2.000000e+002	0.000000e+000	-2.000000e+002	0.000000e+000
79398780.000	-4.866064e-001	6.651346e+001	-5.637671e+001	1.715014e+002	-2.000000e+002	0.000000e+000	-2.000000e+002	0.000000e+000
80048770.000	-4.864946e-001	6.413142e+001	-5.623933e+001	1.700227e+002	-2.000000e+002	0.000000e+000	-2.000000e+002	0.000000e+000
80698760.000	-4.848220e-001	6.175675e+001	-5.601965e+001	1.679237e+002	-2.000000e+002	0.000000e+000	-2.000000e+002	0.000000e+000
81348750.000	-4.835742e-001	5.938560e+001	-5.585795e+001	1.661114e+002	-2.000000e+002	0.000000e+000	-2.000000e+002	0.000000e+000
81998740.000	-4.818178e-001	5.701831e+001	-5.571981e+001	1.638725e+002	-2.000000e+002	0.000000e+000	-2.000000e+002	0.000000e+000
82648730.000	-4.811150e-001	5.466322e+001	-5.555179e+001	1.615823e+002	-2.000000e+002	0.000000e+000	-2.000000e+002	0.000000e+000
83298720.000	-4.792176e-001	5.229477e+001	-5.549593e+001	1.600093e+002	-2.000000e+002	0.000000e+000	-2.000000e+002	0.000000e+000
83948710.000	-4.773151e-001	4.992800e+001	-5.538155e+001	1.576396e+002	-2.000000e+002	0.000000e+000	-2.000000e+002	0.000000e+000
84598700.000	-4.752704e-001	4.756236e+001	-5.526701e+001	1.554690e+002	-2.000000e+002	0.000000e+000	-2.000000e+002	0.000000e+000
85248690.000	-4.734795e-001	4.520103e+001	-5.513053e+001	1.543102e+002	-2.000000e+002	0.000000e+000	-2.000000e+002	0.000000e+000
85898680.000	-4.717910e-001	4.283915e+001	-5.501758e+001	1.517656e+002	-2.000000e+002	0.000000e+000	-2.000000e+002	0.000000e+000
86548670.000	-4.691485e-001	4.048511e+001	-5.484838e+001	1.500152e+002	-2.000000e+002	0.000000e+000	-2.000000e+002	0.000000e+000
87198660.000	-4.669055e-001	3.812742e+001	-5.478273e+001	1.479512e+002	-2.000000e+002	0.000000e+000	-2.000000e+002	0.000000e+000
87848650.000	-4.647594e-001	3.577761e+001	-5.472232e+001	1.462057e+002	-2.000000e+002	0.000000e+000	-2.000000e+002	0.000000e+000
88498640.000	-4.621308e-001	3.342515e+001	-5.460822e+001	1.440842e+002	-2.000000e+002	0.000000e+000	-2.000000e+002	0.000000e+000
89148630.000	-4.602629e-001	3.107751e+001	-5.448585e+001	1.424708e+002	-2.000000e+002	0.000000e+000	-2.000000e+002	0.000000e+000
89798620.000	-4.573444e-001	2.872707e+001	-5.434338e+001	1.409863e+002	-2.000000e+002	0.000000e+000	-2.000000e+002	0.000000e+000
90448610.000	-4.546930e-001	2.637747e+001	-5.418130e+001	1.389511e+002	-2.000000e+002	0.000000e+000	-2.000000e+002	0.000000e+000
91098600.000	-4.523164e-001	2.402772e+001	-5.398691e+001	1.366707e+002	-2.000000e+002	0.000000e+000	-2.000000e+002	0.000000e+000
91748590.000	-4.495226e-001	2.167727e+001	-5.397453e+001	1.342499e+002	-2.000000e+002	0.000000e+000	-2.000000e+002	0.000000e+000
92398580.000	-4.464201e-001	1.933071e+001	-5.379893e+001	1.329604e+002	-2.000000e+002	0.000000e+000	-2.000000e+002	0.000000e+000
93048570.000	-4.434527e-001	1.697932e+001	-5.365373e+001	1.295373e+002	-2.000000e+002	0.000000e+000	-2.000000e+002	0.000000e+000
93698560.000	-4.411269e-001	1.463728e+001	-5.371735e+001	1.288756e+002	-2.000000e+002	0.000000e+000	-2.000000e+002	0.000000e+000
94348550.000	-4.382434e-001	1.229202e+001	-5.367269e+001	1.272231e+002	-2.000000e+002	0.000000e+000	-2.000000e+002	0.000000e+000
94998540.000	-4.362168e-001	9.948181e+000	-5.356159e+001	1.271232e+002	-2.000000e+002	0.000000e+000	-2.000000e+002	0.000000e+000
95648530.000	-4.330993e-001	7.612597e+000	-5.342117e+001	1.239805e+002	-2.000000e+002	0.000000e+000	-2.000000e+002	0.000000e+000
96298520.000	-4.299508e-001	5.274955e+000	-5.334092e+001	1.221744e+002	-2.000000e+002	0.000000e+000	-2.000000e+002	0.000000e+000
96948510.000	-4.273581e-001	2.935597e+000	-5.329651e+001	1.205818e+002	-2.000000e+002	0.000000e+000	-2.000000e+002	0.000000e+000
97598500.000	-4.251900e-001	5.992562e-001	-5.328889e+001	1.191111e+002	-2.000000e+002	0.000000e+000	-2.000000e+002	0.000000e+000
98248490.000	-4.218289e-001	-1.738287e+000	-5.326719e+001	1.186294e+002	-2.000000e+002	0.000000e+000	-2.000000e+002	0.000000e+000
