!Keysight Technologies,E5063A,MY54503115,A.05.08
!Date: Mon Mar 04 15:50:29 2024
!Data & Calibration Information:
!Freq	S11:NONE(--)	S21:NONE(--)	S12:NONE(--)	S22:NONE(--)
# Hz S dB R 50
100000.000	4.840364e-002	-9.406051e-001	-9.039763e+001	-8.364416e+001	-2.000000e+002	0.000000e+000	-2.000000e+002	0.000000e+000
749990.000	2.268231e-003	-3.072994e+000	-8.705689e+001	-1.125060e+002	-2.000000e+002	0.000000e+000	-2.000000e+002	0.000000e+000
1399980.000	4.827457e-003	-5.368166e+000	-9.736665e+001	1.655182e+002	-2.000000e+002	0.000000e+000	-2.000000e+002	0.000000e+000
2049970.000	2.895302e-003	-7.694756e+000	-7.806570e+001	1.315546e+002	-2.000000e+002	0.000000e+000	-2.000000e+002	0.000000e+000
2699960.000	4.448574e-003	-1.002090e+001	-7.931207e+001	8.734782e+001	-2.000000e+002	0.000000e+000	-2.000000e+002	0.000000e+000
3349950.000	6.495683e-003	-1.235857e+001	-7.995894e+001	6.821097e+001	-2.000000e+002	0.000000e+000	-2.000000e+002	0.000000e+000
3999940.000	6.142342e-003	-1.468518e+001	-7.452430e+001	7.991364e+001	-2.000000e+002	0.000000e+000	-2.000000e+002	0.000000e+000
4649930.000	8.389213e-003	-1.703111e+001	-7.456637e+001	8.509567e+001	-2.000000e+002	0.000000e+000	-2.000000e+002	0.000000e+000
5299920.000	8.196931e-003	-1.936433e+001	-7.490114e+001	7.299089e+001	-2.000000e+002	0.000000e+000	-2.000000e+002	0.000000e+000
5949910.000	8.158297e-003	-2.170426e+001	-7.226788e+001	7.605875e+001	-2.000000e+002	0.000000e+000	-2.000000e+002	0.000000e+000
6599900.000	7.615731e-003	-2.403434e+001	-7.115736e+001	7.385877e+001	-2.000000e+002	0.000000e+000	-2.000000e+002	0.000000e+000
7249890.000	7.906774e-003	-2.637968e+001	-7.068319e+001	6.778706e+001	-2.000000e+002	0.000000e+000	-2.000000e+002	0.000000e+000
7899880.000	7.297331e-003	-2.872086e+001	-6.980923e+001	6.226104e+001	-2.000000e+002	0.000000e+000	-2.000000e+002	0.000000e+000
8549870.000	1.100844e-002	-3.107551e+001	-6.907115e+001	6.347973e+001	-2.000000e+002	0.000000e+000	-2.000000e+002	0.000000e+000
9199860.000	9.598834e-003	-3.341830e+001	-6.842717e+001	6.154591e+001	-2.000000e+002	0.000000e+000	-2.000000e+002	0.000000e+000
9849850.000	9.097806e-003	-3.576386e+001	-6.768340e+001	5.836201e+001	-2.000000e+002	0.000000e+000	-2.000000e+002	0.000000e+000
10499840.000	7.522426e-003	-3.810250e+001	-6.699071e+001	5.642434e+001	-2.000000e+002	0.000000e+000	-2.000000e+002	0.000000e+000
11149830.000	4.993351e-003	-4.044272e+001	-6.641153e+001	5.361357e+001	-2.000000e+002	0.000000e+000	-2.000000e+002	0.000000e+000
11799820.000	3.703826e-003	-4.279116e+001	-6.599826e+001	5.271364e+001	-2.000000e+002	0.000000e+000	-2.000000e+002	0.000000e+000
12449810.000	4.088341e-003	-4.514584e+001	-6.538290e+001	4.937004e+001	-2.000000e+002	0.000000e+000	-2.000000e+002	0.000000e+000
13099800.000	5.141851e-003	-4.750056e+001	-6.499389e+001	4.674513e+001	-2.000000e+002	0.000000e+000	-2.000000e+002	0.000000e+000
13749790.000	2.580057e-003	-4.984959e+001	-6.454034e+001	4.407973e+001	-2.000000e+002	0.000000e+000	-2.000000e+002	0.000000e+000
14399780.000	3.865302e-004	-5.221129e+001	-6.398690e+001	4.159478e+001	-2.000000e+002	0.000000e+000	-2.000000e+002	0.000000e+000
15049770.000	-9.487369e-004	-5.457427e+001	-6.355359e+001	3.930516e+001	-2.000000e+002	0.000000e+000	-2.000000e+002	0.000000e+000
15699760.000	-1.673071e-003	-5.691720e+001	-6.319289e+001	3.794537e+001	-2.000000e+002	0.000000e+000	-2.000000e+002	0.000000e+000
16349750.000	-4.192982e-003	-5.927519e+001	-6.274471e+001	3.491995e+001	-2.000000e+002	0.000000e+000	-2.000000e+002	0.000000e+000
16999740.000	-7.181136e-003	-6.164751e+001	-6.252254e+001	3.340972e+001	-2.000000e+002	0.000000e+000	-2.000000e+002	0.000000e+000
17649730.000	-3.627762e-003	-6.401919e+001	-6.200450e+001	2.995659e+001	-2.000000e+002	0.000000e+000	-2.000000e+002	0.000000e+000
18299720.000	-3.957169e-003	-6.638922e+001	-6.183864e+001	2.778436e+001	-2.000000e+002	0.000000e+000	-2.000000e+002	0.000000e+000
18949710.000	-7.531727e-003	-6.875814e+001	-6.136289e+001	2.530951e+001	-2.000000e+002	0.000000e+000	-2.000000e+002	0.000000e+000
19599700.000	-1.600792e-002	-7.112379e+001	-6.117125e+001	2.401038e+001	-2.000000e+002	0.000000e+000	-2.000000e+002	0.000000e+000
20249690.000	-2.229781e-002	-7.349547e+001	-6.094395e+001	2.223430e+001	-2.000000e+002	0.000000e+000	-2.000000e+002	0.000000e+000
20899680.000	-2.559570e-002	-7.589654e+001	-6.055474e+001	2.087422e+001	-2.000000e+002	0.000000e+000	-2.000000e+002	0.000000e+000
21549670.000	-2.976742e-002	-7.828003e+001	-6.025591e+001	2.008800e+001	-2.000000e+002	0.000000e+000	-2.000000e+002	0.000000e+000
22199660.000	-3.408320e-002	-8.065220e+001	-5.964985e+001	1.919856e+001	-2.000000e+002	0.000000e+000	-2.000000e+002	0.000000e+000
22849650.000	-3.752265e-002	-8.300999e+001	-5.911727e+001	1.713434e+001	-2.000000e+002	0.000000e+000	-2.000000e+002	0.000000e+000
23499640.000	-4.320798e-002	-8.539706e+001	-5.864565e+001	1.501541e+001	-2.000000e+002	0.000000e+000	-2.000000e+002	0.000000e+000
24149630.000	-4.894212e-002	-8.779271e+001	-5.806247e+001	1.279486e+001	-2.000000e+002	0.000000e+000	-2.000000e+002	0.000000e+000
24799620.000	-5.377405e-002	-9.018241e+001	-5.757977e+001	9.320079e+000	-2.000000e+002	0.000000e+000	-2.000000e+002	0.000000e+000
25449610.000	-5.749122e-002	-9.256883e+001	-5.714249e+001	6.103500e+000	-2.000000e+002	0.000000e+000	-2.000000e+002	0.000000e+000
26099600.000	-6.306962e-002	-9.496116e+001	-5.670957e+001	3.482822e+000	-2.000000e+002	0.000000e+000	-2.000000e+002	0.000000e+000
26749590.000	-6.931793e-002	-9.736193e+001	-5.628972e+001	2.835459e-002	-2.000000e+002	0.000000e+000	-2.000000e+002	0.000000e+000
27399580.000	-7.513695e-002	-9.976298e+001	-5.594267e+001	-4.089512e+000	-2.000000e+002	0.000000e+000	-2.000000e+002	0.000000e+000
28049570.000	-8.069294e-002	-1.021677e+002	-5.571335e+001	-7.475887e+000	-2.000000e+002	0.000000e+000	-2.000000e+002	0.000000e+000
28699560.000	-8.720432e-002	-1.045737e+002	-5.545443e+001	-9.832567e+000	-2.000000e+002	0.000000e+000	-2.000000e+002	0.000000e+000
29349550.000	-9.386326e-002	-1.069856e+002	-5.524179e+001	-1.172360e+001	-2.000000e+002	0.000000e+000	-2.000000e+002	0.000000e+000
29999540.000	-1.008709e-001	-1.093978e+002	-5.510121e+001	-1.432492e+001	-2.000000e+002	0.000000e+000	-2.000000e+002	0.000000e+000
30649530.000	-1.082085e-001	-1.118181e+002	-5.483817e+001	-1.610343e+001	-2.000000e+002	0.000000e+000	-2.000000e+002	0.000000e+000
31299520.000	-1.149471e-001	-1.142388e+002	-5.455835e+001	-1.714481e+001	-2.000000e+002	0.000000e+000	-2.000000e+002	0.000000e+000
31949510.000	-1.228870e-001	-1.166631e+002	-5.412966e+001	-1.776592e+001	-2.000000e+002	0.000000e+000	-2.000000e+002	0.000000e+000
32599500.000	-1.313643e-001	-1.190921e+002	-5.361516e+001	-1.908463e+001	-2.000000e+002	0.000000e+000	-2.000000e+002	0.000000e+000
33249490.000	-1.398619e-001	-1.215166e+002	-5.302826e+001	-2.010823e+001	-2.000000e+002	0.000000e+000	-2.000000e+002	0.000000e+000
33899480.000	-1.482635e-001	-1.239445e+002	-5.229112e+001	-2.223154e+001	-2.000000e+002	0.000000e+000	-2.000000e+002	0.000000e+000
34549470.000	-1.566231e-001	-1.263761e+002	-5.171042e+001	-2.494132e+001	-2.000000e+002	0.000000e+000	-2.000000e+002	0.000000e+000
35199460.000	-1.657130e-001	-1.288158e+002	-5.119703e+001	-2.654584e+001	-2.000000e+002	0.000000e+000	-2.000000e+002	0.000000e+000
35849450.000	-1.753725e-001	-1.312570e+002	-5.039717e+001	-2.694737e+001	-2.000000e+002	0.000000e+000	-2.000000e+002	0.000000e+000
36499440.000	-1.851479e-001	-1.336968e+002	-4.931826e+001	-2.898773e+001	-2.000000e+002	0.000000e+000	-2.000000e+002	0.000000e+000
37149430.000	-1.942402e-001	-1.361420e+002	-4.826274e+001	-3.229887e+001	-2.000000e+002	0.000000e+000	-2.000000e+002	0.000000e+000
37799420.000	-2.033764e-001	-1.385920e+002	-4.721332e+001	-3.646196e+001	-2.000000e+002	0.000000e+000	-2.000000e+002	0.000000e+000
38449410.000	-2.126236e-001	-1.410442e+002	-4.611961e+001	-4.103731e+001	-2.000000e+002	0.000000e+000	-2.000000e+002	0.000000e+000
39099400.000	-2.218247e-001	-1.435126e+002	-4.503284e+001	-4.613761e+001	-2.000000e+002	0.000000e+000	-2.000000e+002	0.000000e+000
39749390.000	-2.310610e-001	-1.459940e+002	-4.393697e+001	-5.167481e+001	-2.000000e+002	0.000000e+000	-2.000000e+002	0.000000e+000
40399380.000	-2.421652e-001	-1.484955e+002	-4.275157e+001	-5.705039e+001	-2.000000e+002	0.000000e+000	-2.000000e+002	0.000000e+000
41049370.000	-2.556555e-001	-1.510206e+002	-4.137013e+001	-6.242418e+001	-2.000000e+002	0.000000e+000	-2.000000e+002	0.000000e+000
41699360.000	-2.739404e-001	-1.535788e+002	-3.963790e+001	-6.855851e+001	-2.000000e+002	0.000000e+000	-2.000000e+002	0.000000e+000
42349350.000	-3.017601e-001	-1.561901e+002	-3.740425e+001	-7.628970e+001	-2.000000e+002	0.000000e+000	-2.000000e+002	0.000000e+000
42999340.000	-3.532267e-001	-1.588768e+002	-3.440803e+001	-8.820286e+001	-2.000000e+002	0.000000e+000	-2.000000e+002	0.000000e+000
43649330.000	-4.864495e-001	-1.615632e+002	-3.040544e+001	-1.112089e+002	-2.000000e+002	0.000000e+000	-2.000000e+002	0.000000e+000
44299320.000	-6.950897e-001	-1.624493e+002	-2.754346e+001	-1.632791e+002	-2.000000e+002	0.000000e+000	-2.000000e+002	0.000000e+000
44949310.000	-4.617450e-001	-1.637358e+002	-3.120850e+001	1.474339e+002	-2.000000e+002	0.000000e+000	-2.000000e+002	0.000000e+000
45599300.000	-3.598325e-001	-1.665494e+002	-3.543539e+001	1.255564e+002	-2.000000e+002	0.000000e+000	-2.000000e+002	0.000000e+000
46249290.000	-3.344672e-001	-1.692766e+002	-3.868625e+001	1.122738e+002	-2.000000e+002	0.000000e+000	-2.000000e+002	0.000000e+000
46899280.000	-3.299909e-001	-1.718922e+002	-4.139886e+001	1.021978e+002	-2.000000e+002	0.000000e+000	-2.000000e+002	0.000000e+000
47549270.000	-3.320265e-001	-1.744410e+002	-4.379751e+001	9.365028e+001	-2.000000e+002	0.000000e+000	-2.000000e+002	0.000000e+000
48199260.000	-3.360583e-001	-1.769541e+002	-4.603768e+001	8.616398e+001	-2.000000e+002	0.000000e+000	-2.000000e+002	0.000000e+000
48849250.000	-3.407064e-001	-1.794463e+002	-4.815097e+001	7.963965e+001	-2.000000e+002	0.000000e+000	-2.000000e+002	0.000000e+000
49499240.000	-3.451909e-001	1.780717e+002	-5.030642e+001	7.415560e+001	-2.000000e+002	0.000000e+000	-2.000000e+002	0.000000e+000
50149230.000	-3.495329e-001	1.755938e+002	-5.233464e+001	7.051652e+001	-2.000000e+002	0.000000e+000	-2.000000e+002	0.000000e+000
50799220.000	-3.546647e-001	1.731195e+002	-5.399154e+001	6.765892e+001	-2.000000e+002	0.000000e+000	-2.000000e+002	0.000000e+000
51449210.000	-3.599503e-001	1.706433e+002	-5.539573e+001	6.390347e+001	-2.000000e+002	0.000000e+000	-2.000000e+002	0.000000e+000
52099200.000	-3.653337e-001	1.681743e+002	-5.686040e+001	5.907588e+001	-2.000000e+002	0.000000e+000	-2.000000e+002	0.000000e+000
52749190.000	-3.711646e-001	1.657104e+002	-5.822006e+001	5.285277e+001	-2.000000e+002	0.000000e+000	-2.000000e+002	0.000000e+000
53399180.000	-3.769094e-001	1.632491e+002	-5.984489e+001	4.638720e+001	-2.000000e+002	0.000000e+000	-2.000000e+002	0.000000e+000
54049170.000	-3.827031e-001	1.607908e+002	-6.145958e+001	3.985700e+001	-2.000000e+002	0.000000e+000	-2.000000e+002	0.000000e+000
54699160.000	-3.882417e-001	1.583314e+002	-6.310707e+001	3.236910e+001	-2.000000e+002	0.000000e+000	-2.000000e+002	0.000000e+000
55349150.000	-3.943122e-001	1.558750e+002	-6.429527e+001	2.436995e+001	-2.000000e+002	0.000000e+000	-2.000000e+002	0.000000e+000
55999140.000	-3.996990e-001	1.534237e+002	-6.517099e+001	1.420172e+001	-2.000000e+002	0.000000e+000	-2.000000e+002	0.000000e+000
56649130.000	-4.054577e-001	1.509749e+002	-6.614957e+001	7.780148e-001	-2.000000e+002	0.000000e+000	-2.000000e+002	0.000000e+000
57299120.000	-4.107659e-001	1.485266e+002	-6.663848e+001	-1.265536e+001	-2.000000e+002	0.000000e+000	-2.000000e+002	0.000000e+000
57949110.000	-4.159610e-001	1.460788e+002	-6.671839e+001	-2.816863e+001	-2.000000e+002	0.000000e+000	-2.000000e+002	0.000000e+000
58599100.000	-4.207120e-001	1.436311e+002	-6.653893e+001	-4.220715e+001	-2.000000e+002	0.000000e+000	-2.000000e+002	0.000000e+000
59249090.000	-4.257112e-001	1.411907e+002	-6.624126e+001	-5.322059e+001	-2.000000e+002	0.000000e+000	-2.000000e+002	0.000000e+000
59899080.000	-4.303248e-001	1.387490e+002	-6.565826e+001	-6.291419e+001	-2.000000e+002	0.000000e+000	-2.000000e+002	0.000000e+000
60549070.000	-4.353223e-001	1.363128e+002	-6.490491e+001	-7.022744e+001	-2.000000e+002	0.000000e+000	-2.000000e+002	0.000000e+000
61199060.000	-4.402719e-001	1.338808e+002	-6.392490e+001	-7.482964e+001	-2.000000e+002	0.000000e+000	-2.000000e+002	0.000000e+000
61849050.000	-4.445819e-001	1.314467e+002	-6.267763e+001	-8.168976e+001	-2.000000e+002	0.000000e+000	-2.000000e+002	0.000000e+000
62499040.000	-4.492389e-001	1.290211e+002	-6.143255e+001	-8.927155e+001	-2.000000e+002	0.000000e+000	-2.000000e+002	0.000000e+000
63149030.000	-4.531442e-001	1.265935e+002	-6.043204e+001	-9.830706e+001	-2.000000e+002	0.000000e+000	-2.000000e+002	0.000000e+000
63799020.000	-4.562226e-001	1.241736e+002	-5.971162e+001	-1.071640e+002	-2.000000e+002	0.000000e+000	-2.000000e+002	0.000000e+000
64449010.000	-4.596356e-001	1.217507e+002	-5.941242e+001	-1.160369e+002	-2.000000e+002	0.000000e+000	-2.000000e+002	0.000000e+000
65099000.000	-4.620410e-001	1.193253e+002	-5.913766e+001	-1.226343e+002	-2.000000e+002	0.000000e+000	-2.000000e+002	0.000000e+000
65748990.000	-4.644287e-001	1.168987e+002	-5.912292e+001	-1.283742e+002	-2.000000e+002	0.000000e+000	-2.000000e+002	0.000000e+000
66398980.000	-4.672360e-001	1.144812e+002	-5.891607e+001	-1.335460e+002	-2.000000e+002	0.000000e+000	-2.000000e+002	0.000000e+000
67048970.000	-4.694339e-001	1.120592e+002	-5.882981e+001	-1.376755e+002	-2.000000e+002	0.000000e+000	-2.000000e+002	0.000000e+000
67698960.000	-4.721157e-001	1.096462e+002	-5.876122e+001	-1.417857e+002	-2.000000e+002	0.000000e+000	-2.000000e+002	0.000000e+000
68348950.000	-4.736171e-001	1.072321e+002	-5.865334e+001	-1.450427e+002	-2.000000e+002	0.000000e+000	-2.000000e+002	0.000000e+000
68998940.000	-4.760065e-001	1.048184e+002	-5.855225e+001	-1.483496e+002	-2.000000e+002	0.000000e+000	-2.000000e+002	0.000000e+000
69648930.000	-4.774912e-001	1.024051e+002	-5.841167e+001	-1.514432e+002	-2.000000e+002	0.000000e+000	-2.000000e+002	0.000000e+000
70298920.000	-4.792940e-001	9.998901e+001	-5.834988e+001	-1.545821e+002	-2.000000e+002	0.000000e+000	-2.000000e+002	0.000000e+000
70948910.000	-4.816212e-001	9.758182e+001	-5.829156e+001	-1.567980e+002	-2.000000e+002	0.000000e+000	-2.000000e+002	0.000000e+000
71598900.000	-4.824167e-001	9.517427e+001	-5.817409e+001	-1.593103e+002	-2.000000e+002	0.000000e+000	-2.000000e+002	0.000000e+000
72248890.000	-4.843897e-001	9.277302e+001	-5.798733e+001	-1.617389e+002	-2.000000e+002	0.000000e+000	-2.000000e+002	0.000000e+000
72898880.000	-4.851931e-001	9.037251e+001	-5.792495e+001	-1.643581e+002	-2.000000e+002	0.000000e+000	-2.000000e+002	0.000000e+000
73548870.000	-4.867678e-001	8.797375e+001	-5.786799e+001	-1.667301e+002	-2.000000e+002	0.000000e+000	-2.000000e+002	0.000000e+000
74198860.000	-4.873519e-001	8.557789e+001	-5.773002e+001	-1.691660e+002	-2.000000e+002	0.000000e+000	-2.000000e+002	0.000000e+000
74848850.000	-4.883642e-001	8.318480e+001	-5.759996e+001	-1.714181e+002	-2.000000e+002	0.000000e+000	-2.000000e+002	0.000000e+000
75498840.000	-4.887721e-001	8.079174e+001	-5.755419e+001	-1.739158e+002	-2.000000e+002	0.000000e+000	-2.000000e+002	0.000000e+000
76148830.000	-4.890506e-001	7.840018e+001	-5.749947e+001	-1.761317e+002	-2.000000e+002	0.000000e+000	-2.000000e+002	0.000000e+000
76798820.000	-4.884764e-001	7.601365e+001	-5.744333e+001	-1.777008e+002	-2.000000e+002	0.000000e+000	-2.000000e+002	0.000000e+000
77448810.000	-4.893575e-001	7.364524e+001	-5.740214e+001	-1.793913e+002	-2.000000e+002	0.000000e+000	-2.000000e+002	0.000000e+000
78098800.000	-4.897806e-001	7.126063e+001	-5.732796e+001	1.790416e+002	-2.000000e+002	0.000000e+000	-2.000000e+002	0.000000e+000
78748790.000	-4.898124e-001	6.888533e+001	-5.715166e+001	1.779549e+002	-2.000000e+002	0.000000e+000	-2.000000e+002	0.000000e+000
79398780.000	-4.884735e-001	6.650675e+001	-5.698685e+001	1.762424e+002	-2.000000e+002	0.000000e+000	-2.000000e+002	0.000000e+000
80048770.000	-4.886388e-001	6.412519e+001	-5.674926e+001	1.743288e+002	-2.000000e+002	0.000000e+000	-2.000000e+002	0.000000e+000
80698760.000	-4.873671e-001	6.175413e+001	-5.657526e+001	1.727920e+002	-2.000000e+002	0.000000e+000	-2.000000e+002	0.000000e+000
81348750.000	-4.857240e-001	5.938044e+001	-5.635112e+001	1.703594e+002	-2.000000e+002	0.000000e+000	-2.000000e+002	0.000000e+000
81998740.000	-4.838658e-001	5.701125e+001	-5.622422e+001	1.681755e+002	-2.000000e+002	0.000000e+000	-2.000000e+002	0.000000e+000
82648730.000	-4.827518e-001	5.465684e+001	-5.613174e+001	1.655595e+002	-2.000000e+002	0.000000e+000	-2.000000e+002	0.000000e+000
83298720.000	-4.814263e-001	5.228712e+001	-5.612607e+001	1.636159e+002	-2.000000e+002	0.000000e+000	-2.000000e+002	0.000000e+000
83948710.000	-4.796990e-001	4.992083e+001	-5.601245e+001	1.614685e+002	-2.000000e+002	0.000000e+000	-2.000000e+002	0.000000e+000
84598700.000	-4.778364e-001	4.755715e+001	-5.589208e+001	1.598645e+002	-2.000000e+002	0.000000e+000	-2.000000e+002	0.000000e+000
85248690.000	-4.754526e-001	4.519089e+001	-5.577160e+001	1.575667e+002	-2.000000e+002	0.000000e+000	-2.000000e+002	0.000000e+000
85898680.000	-4.736798e-001	4.283275e+001	-5.568952e+001	1.561585e+002	-2.000000e+002	0.000000e+000	-2.000000e+002	0.000000e+000
86548670.000	-4.713943e-001	4.047755e+001	-5.551606e+001	1.543928e+002	-2.000000e+002	0.000000e+000	-2.000000e+002	0.000000e+000
87198660.000	-4.689408e-001	3.812257e+001	-5.541581e+001	1.525048e+002	-2.000000e+002	0.000000e+000	-2.000000e+002	0.000000e+000
87848650.000	-4.666596e-001	3.577099e+001	-5.531440e+001	1.509451e+002	-2.000000e+002	0.000000e+000	-2.000000e+002	0.000000e+000
88498640.000	-4.644256e-001	3.341898e+001	-5.521156e+001	1.493245e+002	-2.000000e+002	0.000000e+000	-2.000000e+002	0.000000e+000
89148630.000	-4.624615e-001	3.106937e+001	-5.506666e+001	1.479065e+002	-2.000000e+002	0.000000e+000	-2.000000e+002	0.000000e+000
89798620.000	-4.599755e-001	2.871620e+001	-5.498590e+001	1.460509e+002	-2.000000e+002	0.000000e+000	-2.000000e+002	0.000000e+000
90448610.000	-4.572692e-001	2.636819e+001	-5.481136e+001	1.443487e+002	-2.000000e+002	0.000000e+000	-2.000000e+002	0.000000e+000
91098600.000	-4.548905e-001	2.401301e+001	-5.459534e+001	1.426313e+002	-2.000000e+002	0.000000e+000	-2.000000e+002	0.000000e+000
91748590.000	-4.522342e-001	2.166561e+001	-5.453594e+001	1.401558e+002	-2.000000e+002	0.000000e+000	-2.000000e+002	0.000000e+000
92398580.000	-4.492937e-001	1.931644e+001	-5.432254e+001	1.384915e+002	-2.000000e+002	0.000000e+000	-2.000000e+002	0.000000e+000
93048570.000	-4.461666e-001	1.697286e+001	-5.437984e+001	1.358912e+002	-2.000000e+002	0.000000e+000	-2.000000e+002	0.000000e+000
93698560.000	-4.437391e-001	1.462543e+001	-5.421986e+001	1.343919e+002	-2.000000e+002	0.000000e+000	-2.000000e+002	0.000000e+000
94348550.000	-4.411646e-001	1.228193e+001	-5.409443e+001	1.328599e+002	-2.000000e+002	0.000000e+000	-2.000000e+002	0.000000e+000
94998540.000	-4.387967e-001	9.942019e+000	-5.412922e+001	1.316269e+002	-2.000000e+002	0.000000e+000	-2.000000e+002	0.000000e+000
95648530.000	-4.358746e-001	7.598950e+000	-5.401943e+001	1.295557e+002	-2.000000e+002	0.000000e+000	-2.000000e+002	0.000000e+000
96298520.000	-4.325849e-001	5.259408e+000	-5.392524e+001	1.283708e+002	-2.000000e+002	0.000000e+000	-2.000000e+002	0.000000e+000
96948510.000	-4.303311e-001	2.918821e+000	-5.392519e+001	1.272072e+002	-2.000000e+002	0.000000e+000	-2.000000e+002	0.000000e+000
97598500.000	-4.283907e-001	5.804458e-001	-5.394275e+001	1.266685e+002	-2.000000e+002	0.000000e+000	-2.000000e+002	0.000000e+000
98248490.000	-4.252732e-001	-1.760323e+000	-5.382889e+001	1.261222e+002	-2.000000e+002	0.000000e+000	-2.000000e+002	0.000000e+000
