!Keysight Technologies,E5063A,MY54503115,A.05.08
!Date: Mon Mar 04 16:13:26 2024
!Data & Calibration Information:
!Freq	S11:NONE(--)	S21:NONE(--)	S12:NONE(--)	S22:NONE(--)
# Hz S dB R 50
100000.000	4.826753e-002	-8.980597e-001	-8.285195e+001	3.451752e+001	-2.000000e+002	0.000000e+000	-2.000000e+002	0.000000e+000
749990.000	5.323905e-003	-3.072632e+000	-8.184392e+001	-7.994599e+001	-2.000000e+002	0.000000e+000	-2.000000e+002	0.000000e+000
1399980.000	7.754466e-003	-5.383964e+000	-9.120277e+001	1.400383e+002	-2.000000e+002	0.000000e+000	-2.000000e+002	0.000000e+000
2049970.000	5.748292e-003	-7.704193e+000	-7.993740e+001	1.536863e+002	-2.000000e+002	0.000000e+000	-2.000000e+002	0.000000e+000
2699960.000	7.921360e-003	-1.002521e+001	-8.069644e+001	7.757257e+001	-2.000000e+002	0.000000e+000	-2.000000e+002	0.000000e+000
3349950.000	1.023066e-002	-1.236788e+001	-7.491328e+001	8.316938e+001	-2.000000e+002	0.000000e+000	-2.000000e+002	0.000000e+000
3999940.000	9.792059e-003	-1.469591e+001	-7.572618e+001	7.759244e+001	-2.000000e+002	0.000000e+000	-2.000000e+002	0.000000e+000
4649930.000	1.266507e-002	-1.703942e+001	-7.283049e+001	6.906013e+001	-2.000000e+002	0.000000e+000	-2.000000e+002	0.000000e+000
5299920.000	1.065758e-002	-1.936935e+001	-7.280594e+001	7.422865e+001	-2.000000e+002	0.000000e+000	-2.000000e+002	0.000000e+000
5949910.000	1.005675e-002	-2.170392e+001	-7.166078e+001	6.502481e+001	-2.000000e+002	0.000000e+000	-2.000000e+002	0.000000e+000
6599900.000	1.044307e-002	-2.404584e+001	-7.181089e+001	5.820909e+001	-2.000000e+002	0.000000e+000	-2.000000e+002	0.000000e+000
7249890.000	1.096906e-002	-2.638635e+001	-7.012446e+001	6.579354e+001	-2.000000e+002	0.000000e+000	-2.000000e+002	0.000000e+000
7899880.000	1.066698e-002	-2.873015e+001	-6.986641e+001	6.224094e+001	-2.000000e+002	0.000000e+000	-2.000000e+002	0.000000e+000
8549870.000	1.437756e-002	-3.107685e+001	-6.861204e+001	6.315821e+001	-2.000000e+002	0.000000e+000	-2.000000e+002	0.000000e+000
9199860.000	1.257246e-002	-3.341909e+001	-6.761400e+001	5.954147e+001	-2.000000e+002	0.000000e+000	-2.000000e+002	0.000000e+000
9849850.000	1.282718e-002	-3.576255e+001	-6.735481e+001	5.560292e+001	-2.000000e+002	0.000000e+000	-2.000000e+002	0.000000e+000
10499840.000	1.096551e-002	-3.810207e+001	-6.655856e+001	5.568445e+001	-2.000000e+002	0.000000e+000	-2.000000e+002	0.000000e+000
11149830.000	8.188736e-003	-4.044359e+001	-6.567089e+001	5.232991e+001	-2.000000e+002	0.000000e+000	-2.000000e+002	0.000000e+000
11799820.000	6.095882e-003	-4.278956e+001	-6.551219e+001	5.096419e+001	-2.000000e+002	0.000000e+000	-2.000000e+002	0.000000e+000
12449810.000	6.779197e-003	-4.514350e+001	-6.504541e+001	4.841521e+001	-2.000000e+002	0.000000e+000	-2.000000e+002	0.000000e+000
13099800.000	7.967975e-003	-4.749514e+001	-6.446281e+001	4.544402e+001	-2.000000e+002	0.000000e+000	-2.000000e+002	0.000000e+000
13749790.000	5.144391e-003	-4.984355e+001	-6.416258e+001	4.401196e+001	-2.000000e+002	0.000000e+000	-2.000000e+002	0.000000e+000
14399780.000	3.284048e-003	-5.220786e+001	-6.364378e+001	4.077532e+001	-2.000000e+002	0.000000e+000	-2.000000e+002	0.000000e+000
15049770.000	1.944408e-003	-5.456210e+001	-6.335367e+001	3.793548e+001	-2.000000e+002	0.000000e+000	-2.000000e+002	0.000000e+000
15699760.000	9.987036e-004	-5.690709e+001	-6.282379e+001	3.652158e+001	-2.000000e+002	0.000000e+000	-2.000000e+002	0.000000e+000
16349750.000	-6.419380e-004	-5.926298e+001	-6.244204e+001	3.380215e+001	-2.000000e+002	0.000000e+000	-2.000000e+002	0.000000e+000
16999740.000	-3.692904e-003	-6.163497e+001	-6.229777e+001	3.216261e+001	-2.000000e+002	0.000000e+000	-2.000000e+002	0.000000e+000
17649730.000	1.180498e-004	-6.400827e+001	-6.161581e+001	2.887860e+001	-2.000000e+002	0.000000e+000	-2.000000e+002	0.000000e+000
18299720.000	8.924861e-005	-6.638135e+001	-6.124096e+001	2.691080e+001	-2.000000e+002	0.000000e+000	-2.000000e+002	0.000000e+000
18949710.000	-3.895440e-003	-6.875057e+001	-6.095616e+001	2.477888e+001	-2.000000e+002	0.000000e+000	-2.000000e+002	0.000000e+000
19599700.000	-1.205628e-002	-7.111912e+001	-6.048502e+001	2.370073e+001	-2.000000e+002	0.000000e+000	-2.000000e+002	0.000000e+000
20249690.000	-1.819641e-002	-7.349145e+001	-6.013170e+001	2.151495e+001	-2.000000e+002	0.000000e+000	-2.000000e+002	0.000000e+000
20899680.000	-2.215174e-002	-7.588823e+001	-5.966637e+001	1.906137e+001	-2.000000e+002	0.000000e+000	-2.000000e+002	0.000000e+000
21549670.000	-2.621177e-002	-7.827293e+001	-5.953196e+001	1.578131e+001	-2.000000e+002	0.000000e+000	-2.000000e+002	0.000000e+000
22199660.000	-3.034106e-002	-8.064878e+001	-5.930236e+001	1.469089e+001	-2.000000e+002	0.000000e+000	-2.000000e+002	0.000000e+000
22849650.000	-3.395575e-002	-8.300612e+001	-5.881831e+001	1.252507e+001	-2.000000e+002	0.000000e+000	-2.000000e+002	0.000000e+000
23499640.000	-3.963315e-002	-8.539522e+001	-5.838713e+001	1.126955e+001	-2.000000e+002	0.000000e+000	-2.000000e+002	0.000000e+000
24149630.000	-4.585111e-002	-8.778991e+001	-5.813830e+001	8.393189e+000	-2.000000e+002	0.000000e+000	-2.000000e+002	0.000000e+000
24799620.000	-5.117095e-002	-9.017765e+001	-5.763600e+001	6.909592e+000	-2.000000e+002	0.000000e+000	-2.000000e+002	0.000000e+000
25449610.000	-5.493128e-002	-9.256698e+001	-5.721582e+001	4.691753e+000	-2.000000e+002	0.000000e+000	-2.000000e+002	0.000000e+000
26099600.000	-6.090620e-002	-9.495621e+001	-5.683014e+001	8.591773e-001	-2.000000e+002	0.000000e+000	-2.000000e+002	0.000000e+000
26749590.000	-6.731938e-002	-9.735590e+001	-5.635511e+001	-1.420463e+000	-2.000000e+002	0.000000e+000	-2.000000e+002	0.000000e+000
27399580.000	-7.318409e-002	-9.975671e+001	-5.596859e+001	-4.191139e+000	-2.000000e+002	0.000000e+000	-2.000000e+002	0.000000e+000
28049570.000	-7.890735e-002	-1.021601e+002	-5.576847e+001	-7.376418e+000	-2.000000e+002	0.000000e+000	-2.000000e+002	0.000000e+000
28699560.000	-8.551706e-002	-1.045656e+002	-5.545287e+001	-1.150693e+001	-2.000000e+002	0.000000e+000	-2.000000e+002	0.000000e+000
29349550.000	-9.259339e-002	-1.069754e+002	-5.529090e+001	-1.212629e+001	-2.000000e+002	0.000000e+000	-2.000000e+002	0.000000e+000
29999540.000	-9.941088e-002	-1.093854e+002	-5.496061e+001	-1.442096e+001	-2.000000e+002	0.000000e+000	-2.000000e+002	0.000000e+000
30649530.000	-1.065759e-001	-1.118080e+002	-5.476753e+001	-1.662015e+001	-2.000000e+002	0.000000e+000	-2.000000e+002	0.000000e+000
31299520.000	-1.135478e-001	-1.142259e+002	-5.449226e+001	-1.767464e+001	-2.000000e+002	0.000000e+000	-2.000000e+002	0.000000e+000
31949510.000	-1.214830e-001	-1.166511e+002	-5.408655e+001	-1.876961e+001	-2.000000e+002	0.000000e+000	-2.000000e+002	0.000000e+000
32599500.000	-1.298037e-001	-1.190798e+002	-5.374378e+001	-1.960049e+001	-2.000000e+002	0.000000e+000	-2.000000e+002	0.000000e+000
33249490.000	-1.381001e-001	-1.215043e+002	-5.317839e+001	-2.075898e+001	-2.000000e+002	0.000000e+000	-2.000000e+002	0.000000e+000
33899480.000	-1.470019e-001	-1.239352e+002	-5.257224e+001	-2.091646e+001	-2.000000e+002	0.000000e+000	-2.000000e+002	0.000000e+000
34549470.000	-1.559173e-001	-1.263644e+002	-5.174174e+001	-2.275228e+001	-2.000000e+002	0.000000e+000	-2.000000e+002	0.000000e+000
35199460.000	-1.648400e-001	-1.287975e+002	-5.099962e+001	-2.450689e+001	-2.000000e+002	0.000000e+000	-2.000000e+002	0.000000e+000
35849450.000	-1.736944e-001	-1.312330e+002	-5.007364e+001	-2.665181e+001	-2.000000e+002	0.000000e+000	-2.000000e+002	0.000000e+000
36499440.000	-1.825483e-001	-1.336751e+002	-4.906900e+001	-3.009810e+001	-2.000000e+002	0.000000e+000	-2.000000e+002	0.000000e+000
37149430.000	-1.912740e-001	-1.361200e+002	-4.825763e+001	-3.369916e+001	-2.000000e+002	0.000000e+000	-2.000000e+002	0.000000e+000
37799420.000	-1.999574e-001	-1.385728e+002	-4.731315e+001	-3.760901e+001	-2.000000e+002	0.000000e+000	-2.000000e+002	0.000000e+000
38449410.000	-2.087458e-001	-1.410281e+002	-4.634259e+001	-4.189708e+001	-2.000000e+002	0.000000e+000	-2.000000e+002	0.000000e+000
39099400.000	-2.176302e-001	-1.434976e+002	-4.532054e+001	-4.649945e+001	-2.000000e+002	0.000000e+000	-2.000000e+002	0.000000e+000
39749390.000	-2.270690e-001	-1.459777e+002	-4.435036e+001	-5.163637e+001	-2.000000e+002	0.000000e+000	-2.000000e+002	0.000000e+000
40399380.000	-2.373940e-001	-1.484752e+002	-4.322892e+001	-5.613106e+001	-2.000000e+002	0.000000e+000	-2.000000e+002	0.000000e+000
41049370.000	-2.499585e-001	-1.509915e+002	-4.190924e+001	-6.083097e+001	-2.000000e+002	0.000000e+000	-2.000000e+002	0.000000e+000
41699360.000	-2.649615e-001	-1.535375e+002	-4.023916e+001	-6.613290e+001	-2.000000e+002	0.000000e+000	-2.000000e+002	0.000000e+000
42349350.000	-2.856590e-001	-1.561377e+002	-3.816896e+001	-7.292516e+001	-2.000000e+002	0.000000e+000	-2.000000e+002	0.000000e+000
42999340.000	-3.220136e-001	-1.588247e+002	-3.543248e+001	-8.276631e+001	-2.000000e+002	0.000000e+000	-2.000000e+002	0.000000e+000
43649330.000	-4.121691e-001	-1.616569e+002	-3.169863e+001	-1.001047e+002	-2.000000e+002	0.000000e+000	-2.000000e+002	0.000000e+000
44299320.000	-6.835433e-001	-1.636829e+002	-2.741477e+001	-1.409064e+002	-2.000000e+002	0.000000e+000	-2.000000e+002	0.000000e+000
44949310.000	-5.721079e-001	-1.637196e+002	-2.918767e+001	1.579822e+002	-2.000000e+002	0.000000e+000	-2.000000e+002	0.000000e+000
45599300.000	-3.971433e-001	-1.663891e+002	-3.401073e+001	1.288794e+002	-2.000000e+002	0.000000e+000	-2.000000e+002	0.000000e+000
46249290.000	-3.534520e-001	-1.691641e+002	-3.776648e+001	1.142760e+002	-2.000000e+002	0.000000e+000	-2.000000e+002	0.000000e+000
46899280.000	-3.425580e-001	-1.718066e+002	-4.075618e+001	1.042371e+002	-2.000000e+002	0.000000e+000	-2.000000e+002	0.000000e+000
47549270.000	-3.411208e-001	-1.743682e+002	-4.332673e+001	9.595173e+001	-2.000000e+002	0.000000e+000	-2.000000e+002	0.000000e+000
48199260.000	-3.428337e-001	-1.768901e+002	-4.568476e+001	8.934572e+001	-2.000000e+002	0.000000e+000	-2.000000e+002	0.000000e+000
48849250.000	-3.455638e-001	-1.793887e+002	-4.781248e+001	8.319103e+001	-2.000000e+002	0.000000e+000	-2.000000e+002	0.000000e+000
49499240.000	-3.490288e-001	1.781215e+002	-4.989713e+001	7.833312e+001	-2.000000e+002	0.000000e+000	-2.000000e+002	0.000000e+000
50149230.000	-3.527192e-001	1.756374e+002	-5.181766e+001	7.414725e+001	-2.000000e+002	0.000000e+000	-2.000000e+002	0.000000e+000
50799220.000	-3.571007e-001	1.731597e+002	-5.355461e+001	7.024598e+001	-2.000000e+002	0.000000e+000	-2.000000e+002	0.000000e+000
51449210.000	-3.621615e-001	1.706792e+002	-5.520362e+001	6.719485e+001	-2.000000e+002	0.000000e+000	-2.000000e+002	0.000000e+000
52099200.000	-3.672392e-001	1.682088e+002	-5.669491e+001	6.159349e+001	-2.000000e+002	0.000000e+000	-2.000000e+002	0.000000e+000
52749190.000	-3.727615e-001	1.657418e+002	-5.828449e+001	5.618116e+001	-2.000000e+002	0.000000e+000	-2.000000e+002	0.000000e+000
53399180.000	-3.782302e-001	1.632786e+002	-6.003942e+001	5.070824e+001	-2.000000e+002	0.000000e+000	-2.000000e+002	0.000000e+000
54049170.000	-3.836017e-001	1.608164e+002	-6.175702e+001	4.344042e+001	-2.000000e+002	0.000000e+000	-2.000000e+002	0.000000e+000
54699160.000	-3.894354e-001	1.583549e+002	-6.335701e+001	3.744056e+001	-2.000000e+002	0.000000e+000	-2.000000e+002	0.000000e+000
55349150.000	-3.951440e-001	1.558972e+002	-6.503751e+001	2.669881e+001	-2.000000e+002	0.000000e+000	-2.000000e+002	0.000000e+000
55999140.000	-4.004783e-001	1.534455e+002	-6.615266e+001	1.603589e+001	-2.000000e+002	0.000000e+000	-2.000000e+002	0.000000e+000
56649130.000	-4.059436e-001	1.509938e+002	-6.761514e+001	-1.980510e+000	-2.000000e+002	0.000000e+000	-2.000000e+002	0.000000e+000
57299120.000	-4.112299e-001	1.485448e+002	-6.785104e+001	-1.695283e+001	-2.000000e+002	0.000000e+000	-2.000000e+002	0.000000e+000
57949110.000	-4.164146e-001	1.460963e+002	-6.798589e+001	-3.366237e+001	-2.000000e+002	0.000000e+000	-2.000000e+002	0.000000e+000
58599100.000	-4.210273e-001	1.436481e+002	-6.778331e+001	-5.176576e+001	-2.000000e+002	0.000000e+000	-2.000000e+002	0.000000e+000
59249090.000	-4.260118e-001	1.412038e+002	-6.740739e+001	-6.262920e+001	-2.000000e+002	0.000000e+000	-2.000000e+002	0.000000e+000
59899080.000	-4.305768e-001	1.387628e+002	-6.623760e+001	-7.423017e+001	-2.000000e+002	0.000000e+000	-2.000000e+002	0.000000e+000
60549070.000	-4.354735e-001	1.363261e+002	-6.557925e+001	-7.971259e+001	-2.000000e+002	0.000000e+000	-2.000000e+002	0.000000e+000
61199060.000	-4.404834e-001	1.338923e+002	-6.426464e+001	-8.438288e+001	-2.000000e+002	0.000000e+000	-2.000000e+002	0.000000e+000
61849050.000	-4.447899e-001	1.314601e+002	-6.296891e+001	-8.919505e+001	-2.000000e+002	0.000000e+000	-2.000000e+002	0.000000e+000
62499040.000	-4.490163e-001	1.290313e+002	-6.178286e+001	-9.668384e+001	-2.000000e+002	0.000000e+000	-2.000000e+002	0.000000e+000
63149030.000	-4.526870e-001	1.266044e+002	-6.052717e+001	-1.047110e+002	-2.000000e+002	0.000000e+000	-2.000000e+002	0.000000e+000
63799020.000	-4.561003e-001	1.241803e+002	-5.977129e+001	-1.124328e+002	-2.000000e+002	0.000000e+000	-2.000000e+002	0.000000e+000
64449010.000	-4.592011e-001	1.217583e+002	-5.931810e+001	-1.206126e+002	-2.000000e+002	0.000000e+000	-2.000000e+002	0.000000e+000
65099000.000	-4.620875e-001	1.193336e+002	-5.928058e+001	-1.263910e+002	-2.000000e+002	0.000000e+000	-2.000000e+002	0.000000e+000
65748990.000	-4.640648e-001	1.169071e+002	-5.890144e+001	-1.322717e+002	-2.000000e+002	0.000000e+000	-2.000000e+002	0.000000e+000
66398980.000	-4.669362e-001	1.144868e+002	-5.869581e+001	-1.365486e+002	-2.000000e+002	0.000000e+000	-2.000000e+002	0.000000e+000
67048970.000	-4.690899e-001	1.120660e+002	-5.851907e+001	-1.407075e+002	-2.000000e+002	0.000000e+000	-2.000000e+002	0.000000e+000
67698960.000	-4.717739e-001	1.096534e+002	-5.836006e+001	-1.447347e+002	-2.000000e+002	0.000000e+000	-2.000000e+002	0.000000e+000
68348950.000	-4.731814e-001	1.072366e+002	-5.823850e+001	-1.487118e+002	-2.000000e+002	0.000000e+000	-2.000000e+002	0.000000e+000
68998940.000	-4.757706e-001	1.048233e+002	-5.809071e+001	-1.519543e+002	-2.000000e+002	0.000000e+000	-2.000000e+002	0.000000e+000
69648930.000	-4.768664e-001	1.024102e+002	-5.794186e+001	-1.545342e+002	-2.000000e+002	0.000000e+000	-2.000000e+002	0.000000e+000
70298920.000	-4.784672e-001	9.999118e+001	-5.799783e+001	-1.576525e+002	-2.000000e+002	0.000000e+000	-2.000000e+002	0.000000e+000
70948910.000	-4.808889e-001	9.758588e+001	-5.776594e+001	-1.594255e+002	-2.000000e+002	0.000000e+000	-2.000000e+002	0.000000e+000
71598900.000	-4.815159e-001	9.517540e+001	-5.763355e+001	-1.617904e+002	-2.000000e+002	0.000000e+000	-2.000000e+002	0.000000e+000
72248890.000	-4.831199e-001	9.277502e+001	-5.746387e+001	-1.644278e+002	-2.000000e+002	0.000000e+000	-2.000000e+002	0.000000e+000
72898880.000	-4.838986e-001	9.037478e+001	-5.731145e+001	-1.671381e+002	-2.000000e+002	0.000000e+000	-2.000000e+002	0.000000e+000
73548870.000	-4.854551e-001	8.797937e+001	-5.723636e+001	-1.693592e+002	-2.000000e+002	0.000000e+000	-2.000000e+002	0.000000e+000
74198860.000	-4.856716e-001	8.558331e+001	-5.717483e+001	-1.720807e+002	-2.000000e+002	0.000000e+000	-2.000000e+002	0.000000e+000
74848850.000	-4.869879e-001	8.318843e+001	-5.697562e+001	-1.740636e+002	-2.000000e+002	0.000000e+000	-2.000000e+002	0.000000e+000
75498840.000	-4.873378e-001	8.079852e+001	-5.690746e+001	-1.763435e+002	-2.000000e+002	0.000000e+000	-2.000000e+002	0.000000e+000
76148830.000	-4.872983e-001	7.840766e+001	-5.680523e+001	-1.783382e+002	-2.000000e+002	0.000000e+000	-2.000000e+002	0.000000e+000
76798820.000	-4.866441e-001	7.601886e+001	-5.675421e+001	1.790533e+002	-2.000000e+002	0.000000e+000	-2.000000e+002	0.000000e+000
77448810.000	-4.874947e-001	7.364788e+001	-5.671615e+001	1.776049e+002	-2.000000e+002	0.000000e+000	-2.000000e+002	0.000000e+000
78098800.000	-4.879767e-001	7.126246e+001	-5.654006e+001	1.759572e+002	-2.000000e+002	0.000000e+000	-2.000000e+002	0.000000e+000
78748790.000	-4.878676e-001	6.888617e+001	-5.644732e+001	1.742908e+002	-2.000000e+002	0.000000e+000	-2.000000e+002	0.000000e+000
79398780.000	-4.869491e-001	6.651257e+001	-5.628541e+001	1.726349e+002	-2.000000e+002	0.000000e+000	-2.000000e+002	0.000000e+000
80048770.000	-4.858902e-001	6.412927e+001	-5.606047e+001	1.706273e+002	-2.000000e+002	0.000000e+000	-2.000000e+002	0.000000e+000
80698760.000	-4.850770e-001	6.175679e+001	-5.581724e+001	1.685663e+002	-2.000000e+002	0.000000e+000	-2.000000e+002	0.000000e+000
81348750.000	-4.831763e-001	5.938806e+001	-5.565816e+001	1.663976e+002	-2.000000e+002	0.000000e+000	-2.000000e+002	0.000000e+000
81998740.000	-4.813878e-001	5.701691e+001	-5.548626e+001	1.636507e+002	-2.000000e+002	0.000000e+000	-2.000000e+002	0.000000e+000
82648730.000	-4.804675e-001	5.466546e+001	-5.539429e+001	1.616320e+002	-2.000000e+002	0.000000e+000	-2.000000e+002	0.000000e+000
83298720.000	-4.789380e-001	5.229478e+001	-5.526450e+001	1.593751e+002	-2.000000e+002	0.000000e+000	-2.000000e+002	0.000000e+000
83948710.000	-4.770535e-001	4.992652e+001	-5.518802e+001	1.570833e+002	-2.000000e+002	0.000000e+000	-2.000000e+002	0.000000e+000
84598700.000	-4.749673e-001	4.756256e+001	-5.512361e+001	1.549402e+002	-2.000000e+002	0.000000e+000	-2.000000e+002	0.000000e+000
85248690.000	-4.731775e-001	4.520038e+001	-5.506397e+001	1.530646e+002	-2.000000e+002	0.000000e+000	-2.000000e+002	0.000000e+000
85898680.000	-4.712285e-001	4.283997e+001	-5.488673e+001	1.512452e+002	-2.000000e+002	0.000000e+000	-2.000000e+002	0.000000e+000
86548670.000	-4.685751e-001	4.048402e+001	-5.481076e+001	1.490697e+002	-2.000000e+002	0.000000e+000	-2.000000e+002	0.000000e+000
87198660.000	-4.657817e-001	3.812973e+001	-5.473173e+001	1.471991e+002	-2.000000e+002	0.000000e+000	-2.000000e+002	0.000000e+000
87848650.000	-4.637433e-001	3.577836e+001	-5.462804e+001	1.450035e+002	-2.000000e+002	0.000000e+000	-2.000000e+002	0.000000e+000
88498640.000	-4.612271e-001	3.342593e+001	-5.459559e+001	1.432362e+002	-2.000000e+002	0.000000e+000	-2.000000e+002	0.000000e+000
89148630.000	-4.597040e-001	3.107707e+001	-5.447206e+001	1.417040e+002	-2.000000e+002	0.000000e+000	-2.000000e+002	0.000000e+000
89798620.000	-4.564277e-001	2.872901e+001	-5.434137e+001	1.400401e+002	-2.000000e+002	0.000000e+000	-2.000000e+002	0.000000e+000
90448610.000	-4.538549e-001	2.637795e+001	-5.421401e+001	1.381292e+002	-2.000000e+002	0.000000e+000	-2.000000e+002	0.000000e+000
91098600.000	-4.519300e-001	2.402552e+001	-5.409095e+001	1.360671e+002	-2.000000e+002	0.000000e+000	-2.000000e+002	0.000000e+000
91748590.000	-4.484496e-001	2.167731e+001	-5.401268e+001	1.343152e+002	-2.000000e+002	0.000000e+000	-2.000000e+002	0.000000e+000
92398580.000	-4.457062e-001	1.932888e+001	-5.382749e+001	1.322390e+002	-2.000000e+002	0.000000e+000	-2.000000e+002	0.000000e+000
93048570.000	-4.432878e-001	1.698000e+001	-5.385381e+001	1.305183e+002	-2.000000e+002	0.000000e+000	-2.000000e+002	0.000000e+000
93698560.000	-4.405368e-001	1.463512e+001	-5.370745e+001	1.282099e+002	-2.000000e+002	0.000000e+000	-2.000000e+002	0.000000e+000
94348550.000	-4.375511e-001	1.229087e+001	-5.363220e+001	1.266952e+002	-2.000000e+002	0.000000e+000	-2.000000e+002	0.000000e+000
94998540.000	-4.354168e-001	9.951387e+000	-5.354570e+001	1.251054e+002	-2.000000e+002	0.000000e+000	-2.000000e+002	0.000000e+000
95648530.000	-4.325425e-001	7.611990e+000	-5.346253e+001	1.237034e+002	-2.000000e+002	0.000000e+000	-2.000000e+002	0.000000e+000
96298520.000	-4.291772e-001	5.273744e+000	-5.335163e+001	1.219550e+002	-2.000000e+002	0.000000e+000	-2.000000e+002	0.000000e+000
96948510.000	-4.266487e-001	2.935704e+000	-5.336139e+001	1.202820e+002	-2.000000e+002	0.000000e+000	-2.000000e+002	0.000000e+000
97598500.000	-4.243805e-001	5.956581e-001	-5.334158e+001	1.191436e+002	-2.000000e+002	0.000000e+000	-2.000000e+002	0.000000e+000
98248490.000	-4.214195e-001	-1.742217e+000	-5.328297e+001	1.187627e+002	-2.000000e+002	0.000000e+000	-2.000000e+002	0.000000e+000
