!Keysight Technologies,E5063A,MY54503115,A.05.08
!Date: Mon Mar 04 16:06:29 2024
!Data & Calibration Information:
!Freq	S11:NONE(--)	S21:NONE(--)	S12:NONE(--)	S22:NONE(--)
# Hz S dB R 50
100000.000	4.723252e-002	-9.029416e-001	-9.041090e+001	1.384709e+001	-2.000000e+002	0.000000e+000	-2.000000e+002	0.000000e+000
749990.000	5.112348e-003	-3.077593e+000	-8.039701e+001	-1.080613e+002	-2.000000e+002	0.000000e+000	-2.000000e+002	0.000000e+000
1399980.000	6.669817e-003	-5.375248e+000	-9.662548e+001	-1.603488e+002	-2.000000e+002	0.000000e+000	-2.000000e+002	0.000000e+000
2049970.000	6.072651e-003	-7.701696e+000	-8.479194e+001	1.029288e+002	-2.000000e+002	0.000000e+000	-2.000000e+002	0.000000e+000
2699960.000	6.944360e-003	-1.002718e+001	-7.918614e+001	8.326269e+001	-2.000000e+002	0.000000e+000	-2.000000e+002	0.000000e+000
3349950.000	9.192785e-003	-1.236635e+001	-7.610855e+001	7.988698e+001	-2.000000e+002	0.000000e+000	-2.000000e+002	0.000000e+000
3999940.000	9.017718e-003	-1.469696e+001	-7.473558e+001	7.836277e+001	-2.000000e+002	0.000000e+000	-2.000000e+002	0.000000e+000
4649930.000	1.137572e-002	-1.703226e+001	-7.657635e+001	7.853748e+001	-2.000000e+002	0.000000e+000	-2.000000e+002	0.000000e+000
5299920.000	1.023506e-002	-1.936965e+001	-7.261516e+001	7.069188e+001	-2.000000e+002	0.000000e+000	-2.000000e+002	0.000000e+000
5949910.000	9.451647e-003	-2.170973e+001	-7.064529e+001	6.964173e+001	-2.000000e+002	0.000000e+000	-2.000000e+002	0.000000e+000
6599900.000	1.029112e-002	-2.404491e+001	-7.082772e+001	7.161175e+001	-2.000000e+002	0.000000e+000	-2.000000e+002	0.000000e+000
7249890.000	1.052057e-002	-2.638367e+001	-7.053528e+001	6.855061e+001	-2.000000e+002	0.000000e+000	-2.000000e+002	0.000000e+000
7899880.000	1.008319e-002	-2.873175e+001	-6.941529e+001	6.304421e+001	-2.000000e+002	0.000000e+000	-2.000000e+002	0.000000e+000
8549870.000	1.361821e-002	-3.107438e+001	-6.853618e+001	6.354318e+001	-2.000000e+002	0.000000e+000	-2.000000e+002	0.000000e+000
9199860.000	1.263924e-002	-3.341951e+001	-6.753582e+001	5.920873e+001	-2.000000e+002	0.000000e+000	-2.000000e+002	0.000000e+000
9849850.000	1.182120e-002	-3.576110e+001	-6.707959e+001	5.811167e+001	-2.000000e+002	0.000000e+000	-2.000000e+002	0.000000e+000
10499840.000	1.013642e-002	-3.810291e+001	-6.676528e+001	5.503133e+001	-2.000000e+002	0.000000e+000	-2.000000e+002	0.000000e+000
11149830.000	7.565596e-003	-4.044356e+001	-6.666177e+001	5.192446e+001	-2.000000e+002	0.000000e+000	-2.000000e+002	0.000000e+000
11799820.000	6.293291e-003	-4.279040e+001	-6.534212e+001	4.996365e+001	-2.000000e+002	0.000000e+000	-2.000000e+002	0.000000e+000
12449810.000	6.662042e-003	-4.514306e+001	-6.500187e+001	4.817625e+001	-2.000000e+002	0.000000e+000	-2.000000e+002	0.000000e+000
13099800.000	7.492457e-003	-4.749642e+001	-6.474804e+001	4.580390e+001	-2.000000e+002	0.000000e+000	-2.000000e+002	0.000000e+000
13749790.000	4.487328e-003	-4.984547e+001	-6.398889e+001	4.323506e+001	-2.000000e+002	0.000000e+000	-2.000000e+002	0.000000e+000
14399780.000	2.493277e-003	-5.220635e+001	-6.364374e+001	4.086054e+001	-2.000000e+002	0.000000e+000	-2.000000e+002	0.000000e+000
15049770.000	1.940110e-003	-5.456582e+001	-6.322226e+001	3.807775e+001	-2.000000e+002	0.000000e+000	-2.000000e+002	0.000000e+000
15699760.000	7.934166e-004	-5.690834e+001	-6.287999e+001	3.600826e+001	-2.000000e+002	0.000000e+000	-2.000000e+002	0.000000e+000
16349750.000	-1.041840e-003	-5.926529e+001	-6.242010e+001	3.310285e+001	-2.000000e+002	0.000000e+000	-2.000000e+002	0.000000e+000
16999740.000	-4.187881e-003	-6.163772e+001	-6.208193e+001	3.109406e+001	-2.000000e+002	0.000000e+000	-2.000000e+002	0.000000e+000
17649730.000	-2.740686e-004	-6.401009e+001	-6.176639e+001	2.935500e+001	-2.000000e+002	0.000000e+000	-2.000000e+002	0.000000e+000
18299720.000	-4.109793e-005	-6.638285e+001	-6.140484e+001	2.701824e+001	-2.000000e+002	0.000000e+000	-2.000000e+002	0.000000e+000
18949710.000	-4.347123e-003	-6.875379e+001	-6.125219e+001	2.536958e+001	-2.000000e+002	0.000000e+000	-2.000000e+002	0.000000e+000
19599700.000	-1.227493e-002	-7.111885e+001	-6.069214e+001	2.272975e+001	-2.000000e+002	0.000000e+000	-2.000000e+002	0.000000e+000
20249690.000	-1.921011e-002	-7.349212e+001	-6.048898e+001	2.075574e+001	-2.000000e+002	0.000000e+000	-2.000000e+002	0.000000e+000
20899680.000	-2.308797e-002	-7.589302e+001	-6.034851e+001	1.922740e+001	-2.000000e+002	0.000000e+000	-2.000000e+002	0.000000e+000
21549670.000	-2.700278e-002	-7.827783e+001	-6.000637e+001	1.849464e+001	-2.000000e+002	0.000000e+000	-2.000000e+002	0.000000e+000
22199660.000	-3.167319e-002	-8.065026e+001	-5.941858e+001	1.853267e+001	-2.000000e+002	0.000000e+000	-2.000000e+002	0.000000e+000
22849650.000	-3.519501e-002	-8.300528e+001	-5.876695e+001	1.548874e+001	-2.000000e+002	0.000000e+000	-2.000000e+002	0.000000e+000
23499640.000	-4.090938e-002	-8.539278e+001	-5.843452e+001	1.265641e+001	-2.000000e+002	0.000000e+000	-2.000000e+002	0.000000e+000
24149630.000	-4.686492e-002	-8.778846e+001	-5.782186e+001	1.058005e+001	-2.000000e+002	0.000000e+000	-2.000000e+002	0.000000e+000
24799620.000	-5.190696e-002	-9.017791e+001	-5.734483e+001	7.097450e+000	-2.000000e+002	0.000000e+000	-2.000000e+002	0.000000e+000
25449610.000	-5.586845e-002	-9.256499e+001	-5.707043e+001	4.915883e+000	-2.000000e+002	0.000000e+000	-2.000000e+002	0.000000e+000
26099600.000	-6.163608e-002	-9.495706e+001	-5.658774e+001	2.768766e+000	-2.000000e+002	0.000000e+000	-2.000000e+002	0.000000e+000
26749590.000	-6.786952e-002	-9.735546e+001	-5.610053e+001	-1.147248e+000	-2.000000e+002	0.000000e+000	-2.000000e+002	0.000000e+000
27399580.000	-7.406238e-002	-9.975659e+001	-5.586359e+001	-4.351496e+000	-2.000000e+002	0.000000e+000	-2.000000e+002	0.000000e+000
28049570.000	-7.935425e-002	-1.021586e+002	-5.547639e+001	-7.275674e+000	-2.000000e+002	0.000000e+000	-2.000000e+002	0.000000e+000
28699560.000	-8.606708e-002	-1.045638e+002	-5.530370e+001	-1.116626e+001	-2.000000e+002	0.000000e+000	-2.000000e+002	0.000000e+000
29349550.000	-9.306683e-002	-1.069732e+002	-5.506936e+001	-1.426919e+001	-2.000000e+002	0.000000e+000	-2.000000e+002	0.000000e+000
29999540.000	-9.963722e-002	-1.093863e+002	-5.487077e+001	-1.546038e+001	-2.000000e+002	0.000000e+000	-2.000000e+002	0.000000e+000
30649530.000	-1.070715e-001	-1.118068e+002	-5.467162e+001	-1.716515e+001	-2.000000e+002	0.000000e+000	-2.000000e+002	0.000000e+000
31299520.000	-1.139298e-001	-1.142285e+002	-5.443617e+001	-1.901505e+001	-2.000000e+002	0.000000e+000	-2.000000e+002	0.000000e+000
31949510.000	-1.216896e-001	-1.166517e+002	-5.396917e+001	-1.948172e+001	-2.000000e+002	0.000000e+000	-2.000000e+002	0.000000e+000
32599500.000	-1.301688e-001	-1.190781e+002	-5.355789e+001	-2.018066e+001	-2.000000e+002	0.000000e+000	-2.000000e+002	0.000000e+000
33249490.000	-1.385530e-001	-1.215046e+002	-5.302332e+001	-2.107856e+001	-2.000000e+002	0.000000e+000	-2.000000e+002	0.000000e+000
33899480.000	-1.471485e-001	-1.239345e+002	-5.245554e+001	-2.165349e+001	-2.000000e+002	0.000000e+000	-2.000000e+002	0.000000e+000
34549470.000	-1.562255e-001	-1.263628e+002	-5.167775e+001	-2.338478e+001	-2.000000e+002	0.000000e+000	-2.000000e+002	0.000000e+000
35199460.000	-1.649336e-001	-1.287976e+002	-5.093094e+001	-2.546754e+001	-2.000000e+002	0.000000e+000	-2.000000e+002	0.000000e+000
35849450.000	-1.738864e-001	-1.312337e+002	-5.006612e+001	-2.741802e+001	-2.000000e+002	0.000000e+000	-2.000000e+002	0.000000e+000
36499440.000	-1.829571e-001	-1.336730e+002	-4.908969e+001	-3.036750e+001	-2.000000e+002	0.000000e+000	-2.000000e+002	0.000000e+000
37149430.000	-1.915606e-001	-1.361205e+002	-4.817914e+001	-3.426693e+001	-2.000000e+002	0.000000e+000	-2.000000e+002	0.000000e+000
37799420.000	-2.000811e-001	-1.385708e+002	-4.728211e+001	-3.822339e+001	-2.000000e+002	0.000000e+000	-2.000000e+002	0.000000e+000
38449410.000	-2.088662e-001	-1.410279e+002	-4.633044e+001	-4.227826e+001	-2.000000e+002	0.000000e+000	-2.000000e+002	0.000000e+000
39099400.000	-2.177967e-001	-1.434976e+002	-4.534709e+001	-4.707196e+001	-2.000000e+002	0.000000e+000	-2.000000e+002	0.000000e+000
39749390.000	-2.270720e-001	-1.459781e+002	-4.434232e+001	-5.194269e+001	-2.000000e+002	0.000000e+000	-2.000000e+002	0.000000e+000
40399380.000	-2.372152e-001	-1.484732e+002	-4.323537e+001	-5.627480e+001	-2.000000e+002	0.000000e+000	-2.000000e+002	0.000000e+000
41049370.000	-2.492849e-001	-1.509904e+002	-4.193308e+001	-6.105748e+001	-2.000000e+002	0.000000e+000	-2.000000e+002	0.000000e+000
41699360.000	-2.639143e-001	-1.535343e+002	-4.029754e+001	-6.638076e+001	-2.000000e+002	0.000000e+000	-2.000000e+002	0.000000e+000
42349350.000	-2.839879e-001	-1.561337e+002	-3.823813e+001	-7.304215e+001	-2.000000e+002	0.000000e+000	-2.000000e+002	0.000000e+000
42999340.000	-3.191299e-001	-1.588234e+002	-3.553748e+001	-8.267321e+001	-2.000000e+002	0.000000e+000	-2.000000e+002	0.000000e+000
43649330.000	-4.060785e-001	-1.616575e+002	-3.183874e+001	-9.938274e+001	-2.000000e+002	0.000000e+000	-2.000000e+002	0.000000e+000
44299320.000	-6.742434e-001	-1.637906e+002	-2.747344e+001	-1.388783e+002	-2.000000e+002	0.000000e+000	-2.000000e+002	0.000000e+000
44949310.000	-5.849352e-001	-1.637455e+002	-2.895119e+001	1.593476e+002	-2.000000e+002	0.000000e+000	-2.000000e+002	0.000000e+000
45599300.000	-4.017092e-001	-1.663829e+002	-3.377831e+001	1.292888e+002	-2.000000e+002	0.000000e+000	-2.000000e+002	0.000000e+000
46249290.000	-3.562152e-001	-1.691661e+002	-3.752391e+001	1.142844e+002	-2.000000e+002	0.000000e+000	-2.000000e+002	0.000000e+000
46899280.000	-3.454514e-001	-1.718088e+002	-4.051186e+001	1.036414e+002	-2.000000e+002	0.000000e+000	-2.000000e+002	0.000000e+000
47549270.000	-3.441281e-001	-1.743685e+002	-4.313947e+001	9.494929e+001	-2.000000e+002	0.000000e+000	-2.000000e+002	0.000000e+000
48199260.000	-3.454035e-001	-1.768848e+002	-4.554178e+001	8.773085e+001	-2.000000e+002	0.000000e+000	-2.000000e+002	0.000000e+000
48849250.000	-3.477054e-001	-1.793816e+002	-4.773229e+001	8.182328e+001	-2.000000e+002	0.000000e+000	-2.000000e+002	0.000000e+000
49499240.000	-3.505321e-001	1.781292e+002	-4.989682e+001	7.694486e+001	-2.000000e+002	0.000000e+000	-2.000000e+002	0.000000e+000
50149230.000	-3.539802e-001	1.756469e+002	-5.187085e+001	7.325724e+001	-2.000000e+002	0.000000e+000	-2.000000e+002	0.000000e+000
50799220.000	-3.579484e-001	1.731655e+002	-5.361619e+001	6.964523e+001	-2.000000e+002	0.000000e+000	-2.000000e+002	0.000000e+000
51449210.000	-3.627312e-001	1.706854e+002	-5.527948e+001	6.640191e+001	-2.000000e+002	0.000000e+000	-2.000000e+002	0.000000e+000
52099200.000	-3.680907e-001	1.682122e+002	-5.684609e+001	6.114166e+001	-2.000000e+002	0.000000e+000	-2.000000e+002	0.000000e+000
52749190.000	-3.735520e-001	1.657455e+002	-5.845496e+001	5.565812e+001	-2.000000e+002	0.000000e+000	-2.000000e+002	0.000000e+000
53399180.000	-3.787077e-001	1.632809e+002	-6.016729e+001	4.961493e+001	-2.000000e+002	0.000000e+000	-2.000000e+002	0.000000e+000
54049170.000	-3.843581e-001	1.608189e+002	-6.182259e+001	4.435936e+001	-2.000000e+002	0.000000e+000	-2.000000e+002	0.000000e+000
54699160.000	-3.895754e-001	1.583590e+002	-6.370344e+001	3.683433e+001	-2.000000e+002	0.000000e+000	-2.000000e+002	0.000000e+000
55349150.000	-3.953973e-001	1.559016e+002	-6.513481e+001	2.832749e+001	-2.000000e+002	0.000000e+000	-2.000000e+002	0.000000e+000
55999140.000	-4.009680e-001	1.534454e+002	-6.636060e+001	1.675297e+001	-2.000000e+002	0.000000e+000	-2.000000e+002	0.000000e+000
56649130.000	-4.066164e-001	1.509954e+002	-6.767803e+001	-6.477896e-001	-2.000000e+002	0.000000e+000	-2.000000e+002	0.000000e+000
57299120.000	-4.117458e-001	1.485458e+002	-6.807866e+001	-1.443052e+001	-2.000000e+002	0.000000e+000	-2.000000e+002	0.000000e+000
57949110.000	-4.168968e-001	1.460975e+002	-6.845223e+001	-3.304985e+001	-2.000000e+002	0.000000e+000	-2.000000e+002	0.000000e+000
58599100.000	-4.216458e-001	1.436482e+002	-6.774540e+001	-5.114821e+001	-2.000000e+002	0.000000e+000	-2.000000e+002	0.000000e+000
59249090.000	-4.265956e-001	1.412059e+002	-6.709965e+001	-6.300037e+001	-2.000000e+002	0.000000e+000	-2.000000e+002	0.000000e+000
59899080.000	-4.311490e-001	1.387647e+002	-6.629505e+001	-7.431590e+001	-2.000000e+002	0.000000e+000	-2.000000e+002	0.000000e+000
60549070.000	-4.360121e-001	1.363259e+002	-6.533112e+001	-7.957474e+001	-2.000000e+002	0.000000e+000	-2.000000e+002	0.000000e+000
61199060.000	-4.410516e-001	1.338940e+002	-6.445029e+001	-8.518121e+001	-2.000000e+002	0.000000e+000	-2.000000e+002	0.000000e+000
61849050.000	-4.451698e-001	1.314600e+002	-6.313776e+001	-8.934890e+001	-2.000000e+002	0.000000e+000	-2.000000e+002	0.000000e+000
62499040.000	-4.499350e-001	1.290338e+002	-6.181194e+001	-9.643224e+001	-2.000000e+002	0.000000e+000	-2.000000e+002	0.000000e+000
63149030.000	-4.534016e-001	1.266074e+002	-6.050309e+001	-1.037895e+002	-2.000000e+002	0.000000e+000	-2.000000e+002	0.000000e+000
63799020.000	-4.563513e-001	1.241827e+002	-5.995511e+001	-1.130326e+002	-2.000000e+002	0.000000e+000	-2.000000e+002	0.000000e+000
64449010.000	-4.599190e-001	1.217621e+002	-5.924173e+001	-1.195149e+002	-2.000000e+002	0.000000e+000	-2.000000e+002	0.000000e+000
65099000.000	-4.622428e-001	1.193353e+002	-5.912799e+001	-1.273879e+002	-2.000000e+002	0.000000e+000	-2.000000e+002	0.000000e+000
65748990.000	-4.645199e-001	1.169111e+002	-5.878044e+001	-1.322075e+002	-2.000000e+002	0.000000e+000	-2.000000e+002	0.000000e+000
66398980.000	-4.672997e-001	1.144903e+002	-5.873646e+001	-1.371048e+002	-2.000000e+002	0.000000e+000	-2.000000e+002	0.000000e+000
67048970.000	-4.698058e-001	1.120688e+002	-5.862113e+001	-1.413361e+002	-2.000000e+002	0.000000e+000	-2.000000e+002	0.000000e+000
67698960.000	-4.722356e-001	1.096540e+002	-5.845184e+001	-1.456205e+002	-2.000000e+002	0.000000e+000	-2.000000e+002	0.000000e+000
68348950.000	-4.738186e-001	1.072404e+002	-5.819384e+001	-1.490815e+002	-2.000000e+002	0.000000e+000	-2.000000e+002	0.000000e+000
68998940.000	-4.761471e-001	1.048258e+002	-5.801581e+001	-1.522519e+002	-2.000000e+002	0.000000e+000	-2.000000e+002	0.000000e+000
69648930.000	-4.775319e-001	1.024116e+002	-5.794908e+001	-1.551988e+002	-2.000000e+002	0.000000e+000	-2.000000e+002	0.000000e+000
70298920.000	-4.792837e-001	9.999486e+001	-5.784741e+001	-1.575569e+002	-2.000000e+002	0.000000e+000	-2.000000e+002	0.000000e+000
70948910.000	-4.812862e-001	9.758737e+001	-5.784280e+001	-1.605218e+002	-2.000000e+002	0.000000e+000	-2.000000e+002	0.000000e+000
71598900.000	-4.819251e-001	9.518132e+001	-5.762794e+001	-1.622212e+002	-2.000000e+002	0.000000e+000	-2.000000e+002	0.000000e+000
72248890.000	-4.836338e-001	9.278014e+001	-5.755881e+001	-1.646334e+002	-2.000000e+002	0.000000e+000	-2.000000e+002	0.000000e+000
72898880.000	-4.846110e-001	9.037589e+001	-5.734099e+001	-1.675279e+002	-2.000000e+002	0.000000e+000	-2.000000e+002	0.000000e+000
73548870.000	-4.859292e-001	8.798116e+001	-5.731018e+001	-1.699964e+002	-2.000000e+002	0.000000e+000	-2.000000e+002	0.000000e+000
74198860.000	-4.864722e-001	8.558495e+001	-5.718035e+001	-1.724145e+002	-2.000000e+002	0.000000e+000	-2.000000e+002	0.000000e+000
74848850.000	-4.878876e-001	8.319283e+001	-5.706720e+001	-1.744816e+002	-2.000000e+002	0.000000e+000	-2.000000e+002	0.000000e+000
75498840.000	-4.879769e-001	8.079957e+001	-5.690014e+001	-1.768269e+002	-2.000000e+002	0.000000e+000	-2.000000e+002	0.000000e+000
76148830.000	-4.882845e-001	7.841290e+001	-5.684486e+001	-1.794364e+002	-2.000000e+002	0.000000e+000	-2.000000e+002	0.000000e+000
76798820.000	-4.876368e-001	7.602211e+001	-5.676898e+001	1.787226e+002	-2.000000e+002	0.000000e+000	-2.000000e+002	0.000000e+000
77448810.000	-4.881456e-001	7.365160e+001	-5.670360e+001	1.767559e+002	-2.000000e+002	0.000000e+000	-2.000000e+002	0.000000e+000
78098800.000	-4.886804e-001	7.126743e+001	-5.664031e+001	1.752834e+002	-2.000000e+002	0.000000e+000	-2.000000e+002	0.000000e+000
78748790.000	-4.882062e-001	6.889075e+001	-5.650070e+001	1.735316e+002	-2.000000e+002	0.000000e+000	-2.000000e+002	0.000000e+000
79398780.000	-4.873645e-001	6.651499e+001	-5.628479e+001	1.718103e+002	-2.000000e+002	0.000000e+000	-2.000000e+002	0.000000e+000
80048770.000	-4.864903e-001	6.413344e+001	-5.610861e+001	1.702715e+002	-2.000000e+002	0.000000e+000	-2.000000e+002	0.000000e+000
80698760.000	-4.853053e-001	6.175854e+001	-5.595963e+001	1.681168e+002	-2.000000e+002	0.000000e+000	-2.000000e+002	0.000000e+000
81348750.000	-4.839641e-001	5.939027e+001	-5.577458e+001	1.661245e+002	-2.000000e+002	0.000000e+000	-2.000000e+002	0.000000e+000
81998740.000	-4.821544e-001	5.702153e+001	-5.562853e+001	1.635853e+002	-2.000000e+002	0.000000e+000	-2.000000e+002	0.000000e+000
82648730.000	-4.810048e-001	5.466614e+001	-5.543857e+001	1.617945e+002	-2.000000e+002	0.000000e+000	-2.000000e+002	0.000000e+000
83298720.000	-4.799325e-001	5.229774e+001	-5.536873e+001	1.596805e+002	-2.000000e+002	0.000000e+000	-2.000000e+002	0.000000e+000
83948710.000	-4.779629e-001	4.993211e+001	-5.530651e+001	1.571178e+002	-2.000000e+002	0.000000e+000	-2.000000e+002	0.000000e+000
84598700.000	-4.756742e-001	4.756572e+001	-5.515127e+001	1.551315e+002	-2.000000e+002	0.000000e+000	-2.000000e+002	0.000000e+000
85248690.000	-4.737229e-001	4.520164e+001	-5.502242e+001	1.534385e+002	-2.000000e+002	0.000000e+000	-2.000000e+002	0.000000e+000
85898680.000	-4.717638e-001	4.284327e+001	-5.495152e+001	1.516514e+002	-2.000000e+002	0.000000e+000	-2.000000e+002	0.000000e+000
86548670.000	-4.694091e-001	4.048625e+001	-5.482497e+001	1.493401e+002	-2.000000e+002	0.000000e+000	-2.000000e+002	0.000000e+000
87198660.000	-4.667616e-001	3.813098e+001	-5.477139e+001	1.473047e+002	-2.000000e+002	0.000000e+000	-2.000000e+002	0.000000e+000
87848650.000	-4.644873e-001	3.578026e+001	-5.467159e+001	1.455975e+002	-2.000000e+002	0.000000e+000	-2.000000e+002	0.000000e+000
88498640.000	-4.620119e-001	3.343065e+001	-5.456902e+001	1.438295e+002	-2.000000e+002	0.000000e+000	-2.000000e+002	0.000000e+000
89148630.000	-4.603811e-001	3.107883e+001	-5.449235e+001	1.423126e+002	-2.000000e+002	0.000000e+000	-2.000000e+002	0.000000e+000
89798620.000	-4.571704e-001	2.872995e+001	-5.439606e+001	1.404993e+002	-2.000000e+002	0.000000e+000	-2.000000e+002	0.000000e+000
90448610.000	-4.545718e-001	2.637945e+001	-5.421167e+001	1.387115e+002	-2.000000e+002	0.000000e+000	-2.000000e+002	0.000000e+000
91098600.000	-4.526402e-001	2.402988e+001	-5.405379e+001	1.365852e+002	-2.000000e+002	0.000000e+000	-2.000000e+002	0.000000e+000
91748590.000	-4.494969e-001	2.168050e+001	-5.398412e+001	1.343502e+002	-2.000000e+002	0.000000e+000	-2.000000e+002	0.000000e+000
92398580.000	-4.464213e-001	1.933213e+001	-5.380051e+001	1.323064e+002	-2.000000e+002	0.000000e+000	-2.000000e+002	0.000000e+000
93048570.000	-4.432006e-001	1.698131e+001	-5.371470e+001	1.306111e+002	-2.000000e+002	0.000000e+000	-2.000000e+002	0.000000e+000
93698560.000	-4.411309e-001	1.464028e+001	-5.371526e+001	1.287244e+002	-2.000000e+002	0.000000e+000	-2.000000e+002	0.000000e+000
94348550.000	-4.383876e-001	1.229547e+001	-5.365730e+001	1.269420e+002	-2.000000e+002	0.000000e+000	-2.000000e+002	0.000000e+000
94998540.000	-4.368501e-001	9.954805e+000	-5.338759e+001	1.266059e+002	-2.000000e+002	0.000000e+000	-2.000000e+002	0.000000e+000
95648530.000	-4.335737e-001	7.616127e+000	-5.343571e+001	1.242180e+002	-2.000000e+002	0.000000e+000	-2.000000e+002	0.000000e+000
96298520.000	-4.299140e-001	5.278773e+000	-5.331833e+001	1.221663e+002	-2.000000e+002	0.000000e+000	-2.000000e+002	0.000000e+000
96948510.000	-4.273683e-001	2.939883e+000	-5.331639e+001	1.205055e+002	-2.000000e+002	0.000000e+000	-2.000000e+002	0.000000e+000
97598500.000	-4.255789e-001	5.994771e-001	-5.333559e+001	1.192835e+002	-2.000000e+002	0.000000e+000	-2.000000e+002	0.000000e+000
98248490.000	-4.222598e-001	-1.735693e+000	-5.326985e+001	1.184863e+002	-2.000000e+002	0.000000e+000	-2.000000e+002	0.000000e+000
